(1668903586.348147) vcan0 095#800007F400000035
(1668903586.348173) vcan0 1A4#0000000800000001
(1668903586.348175) vcan0 1AA#7FFF000000006801
(1668903586.349775) vcan0 244#0000000198
(1668903586.349817) vcan0 1B0#000F0000000148
(1668903586.349834) vcan0 1D0#000000000000000A
(1668903586.349836) vcan0 166#D0320009
(1668903586.351480) vcan0 158#000000000000000A
(1668903586.351498) vcan0 161#000005500108000D
(1668903586.351510) vcan0 191#010010A1410038
(1668903586.352881) vcan0 133#0000000098
(1668903586.352911) vcan0 136#000200000000001B
(1668903586.352913) vcan0 13A#0000000000000019
(1668903586.352915) vcan0 13F#000000050000001F
(1668903586.352917) vcan0 164#0000C01AA8000031
(1668903586.354684) vcan0 17C#0000000010000012
(1668903586.354712) vcan0 18E#00005C
(1668903586.354715) vcan0 183#0000000700001013
(1668903586.355831) vcan0 143#6B6B00D1
(1668903586.357435) vcan0 095#800007F400000008
(1668903586.359867) vcan0 039#002A
(1668903586.359897) vcan0 166#D0320018
(1668903586.361861) vcan0 158#0000000000000019
(1668903586.361869) vcan0 244#00000001AA
(1668903586.361878) vcan0 161#000005500108001C
(1668903586.361880) vcan0 191#010010A141000B
(1668903586.361881) vcan0 133#00000000A7
(1668903586.363157) vcan0 136#000200000000002A
(1668903586.363189) vcan0 13A#0000000000000028
(1668903586.363192) vcan0 13F#000000050000002E
(1668903586.363194) vcan0 164#0000C01AA8000004
(1668903586.363196) vcan0 17C#0000000010000021
(1668903586.363198) vcan0 18E#00006B
(1668903586.364819) vcan0 1CF#80050000003C
(1668903586.364842) vcan0 1DC#02000039
(1668903586.364844) vcan0 183#0000000500001024
(1668903586.366815) vcan0 143#6B6B00E0
(1668903586.368734) vcan0 095#800007F400000017
(1668903586.368778) vcan0 1A4#0000000800000010
(1668903586.368781) vcan0 1AA#7FFF000000006810
(1668903586.368782) vcan0 1B0#000F0000000157
(1668903586.368784) vcan0 1D0#000000000000000A
(1668903586.370728) vcan0 166#D0320027
(1668903586.373491) vcan0 158#0000000000000028
(1668903586.373514) vcan0 161#000005500108002B
(1668903586.373518) vcan0 191#010010A141001A
(1668903586.373520) vcan0 133#00000000B6
(1668903586.373523) vcan0 136#0002000000000039
(1668903586.373525) vcan0 13A#0000000000000037
(1668903586.373528) vcan0 13F#000000050000003D
(1668903586.373529) vcan0 164#0000C01AA8000013
(1668903586.373534) vcan0 17C#0000000010000030
(1668903586.373536) vcan0 039#0039
(1668903586.373536) vcan0 244#000000019D
(1668903586.373538) vcan0 18E#00007A
(1668903586.374694) vcan0 294#040B0002CF5A002C
(1668903586.374713) vcan0 21E#03E8374522062F
(1668903586.374715) vcan0 183#0000000300001035
(1668903586.376681) vcan0 143#6B6B00FF
(1668903586.379125) vcan0 095#800007F400000026
(1668903586.380680) vcan0 166#D0320036
(1668903586.382456) vcan0 158#0000000000000037
(1668903586.382475) vcan0 161#000005500108003A
(1668903586.382478) vcan0 191#010010A1410029
(1668903586.382480) vcan0 133#0000000089
(1668903586.382482) vcan0 136#000200000000000C
(1668903586.382484) vcan0 13A#000000000000000A
(1668903586.384440) vcan0 13F#0000000500000000
(1668903586.384458) vcan0 164#0000C01AA8000022
(1668903586.384460) vcan0 17C#0000000010000003
(1668903586.384462) vcan0 18E#00004D
(1668903586.384464) vcan0 1CF#80050000000F
(1668903586.384466) vcan0 1DC#0200000C
(1668903586.384468) vcan0 183#0000000A00001001
(1668903586.384473) vcan0 244#000000010E
(1668903586.386429) vcan0 143#6B6B00C2
(1668903586.386442) vcan0 039#000C
(1668903586.386444) vcan0 333#0000000000001E
(1668903586.388398) vcan0 095#800007F400000035
(1668903586.388418) vcan0 1A4#000000080000002F
(1668903586.388421) vcan0 1AA#7FFF000000006720
(1668903586.388423) vcan0 1B0#000F0000000166
(1668903586.390062) vcan0 1D0#000000000000000A
(1668903586.390087) vcan0 166#D0320009
(1668903586.391374) vcan0 158#000000000000000A
(1668903586.391404) vcan0 161#000005500108000D
(1668903586.393359) vcan0 191#010010A1410038
(1668903586.393381) vcan0 133#0000000098
(1668903586.393385) vcan0 136#000200000000001B
(1668903586.393387) vcan0 13A#0000000000000019
(1668903586.393389) vcan0 13F#000000050000001F
(1668903586.393391) vcan0 164#0000C01AA8000031
(1668903586.393399) vcan0 17C#0000000010000012
(1668903586.393414) vcan0 18E#00005C
(1668903586.395355) vcan0 183#0000000700001013
(1668903586.395375) vcan0 143#6B6B00D1
(1668903586.395377) vcan0 244#00000001FA
(1668903586.397558) vcan0 095#800007F400000008
(1668903586.401046) vcan0 166#D0320018
(1668903586.401078) vcan0 158#0000000000000019
(1668903586.403024) vcan0 161#000005500108001C
(1668903586.403043) vcan0 191#010010A141000B
(1668903586.403046) vcan0 133#00000000A7
(1668903586.403047) vcan0 136#000200000000002A
(1668903586.403049) vcan0 13A#0000000000000028
(1668903586.403052) vcan0 13F#000000050000002E
(1668903586.403054) vcan0 164#0000C01AA8000004
(1668903586.403055) vcan0 17C#0000000010000021
(1668903586.405536) vcan0 18E#00006B
(1668903586.405547) vcan0 1CF#80050000001E
(1668903586.405550) vcan0 1DC#0200001B
(1668903586.405551) vcan0 320#000012
(1668903586.405553) vcan0 324#7465000000000E1A
(1668903586.405555) vcan0 37C#FD00FD00097F001A
(1668903586.405556) vcan0 183#0000000500001024
(1668903586.405558) vcan0 40C#0236323239533039
(1668903586.405559) vcan0 454#23EF36
(1668903586.405561) vcan0 143#6B6B00E0
(1668903586.407031) vcan0 244#000000010E
(1668903586.408967) vcan0 095#800007F400000017
(1668903586.408994) vcan0 039#001B
(1668903586.408996) vcan0 1A4#000000080000003E
(1668903586.408998) vcan0 1AA#7FFF00000000673F
(1668903586.408999) vcan0 1B0#000F0000000175
(1668903586.409001) vcan0 1D0#000000000000000A
(1668903586.410959) vcan0 166#D0320027
(1668903586.412938) vcan0 158#0000000000000028
(1668903586.412962) vcan0 161#000005500108002B
(1668903586.412965) vcan0 191#010010A141001A
(1668903586.412967) vcan0 133#00000000B6
(1668903586.412969) vcan0 136#0002000000000039
(1668903586.412971) vcan0 13A#0000000000000037
(1668903586.412973) vcan0 13F#000000050000003D
(1668903586.412975) vcan0 164#0000C01AA8000013
(1668903586.414935) vcan0 17C#0000000010000030
(1668903586.414965) vcan0 18E#00007A
(1668903586.414968) vcan0 294#040B0002CF5A003B
(1668903586.414970) vcan0 21E#03E8374522063E
(1668903586.414972) vcan0 183#0000000B0000103D
(1668903586.416898) vcan0 143#6B6B00FF
(1668903586.419013) vcan0 095#800007F400000026
(1668903586.419061) vcan0 244#000000016D
(1668903586.421450) vcan0 166#D0320036
(1668903586.421477) vcan0 158#0000000000000037
(1668903586.421480) vcan0 161#000005500108003A
(1668903586.422850) vcan0 191#010010A1410029
(1668903586.422876) vcan0 164#0000C01AA8000022
(1668903586.422878) vcan0 133#0000000089
(1668903586.422880) vcan0 136#000200000000000C
(1668903586.422882) vcan0 13A#000000000000000A
(1668903586.422884) vcan0 13F#0000000500000000
(1668903586.424830) vcan0 17C#0000000010000003
(1668903586.424853) vcan0 18E#00004D
(1668903586.424856) vcan0 1CF#80050000002D
(1668903586.424858) vcan0 1DC#0200002A
(1668903586.424859) vcan0 183#0000000800001003
(1668903586.426833) vcan0 143#6B6B00C2
(1668903586.428798) vcan0 095#800007F400000035
(1668903586.428819) vcan0 039#002A
(1668903586.428821) vcan0 1A4#0000000800000001
(1668903586.428823) vcan0 1AA#7FFF000000006801
(1668903586.428825) vcan0 1B0#000F0000000148
(1668903586.428827) vcan0 1D0#000000000000000A
(1668903586.430045) vcan0 244#000000015C
(1668903586.430093) vcan0 166#D0320009
(1668903586.431425) vcan0 158#000000000000000A
(1668903586.431431) vcan0 161#000005500108000D
(1668903586.432777) vcan0 191#010010A1410038
(1668903586.432806) vcan0 133#0000000098
(1668903586.432812) vcan0 136#000200000000001B
(1668903586.432814) vcan0 13A#0000000000000019
(1668903586.432816) vcan0 13F#000000050000001F
(1668903586.432818) vcan0 164#0000C01AA9000030
(1668903586.434762) vcan0 17C#0000000010000012
(1668903586.434780) vcan0 18E#00005C
(1668903586.434792) vcan0 309#00000000000000A2
(1668903586.434794) vcan0 428#01040000521C01
(1668903586.434796) vcan0 405#000004000000000B
(1668903586.434797) vcan0 183#0000000600001014
(1668903586.436730) vcan0 143#6B6B00D1
(1668903586.438719) vcan0 095#800007F400000008
(1668903586.441405) vcan0 244#00000001FF
(1668903586.441440) vcan0 166#D0320018
(1668903586.441445) vcan0 305#8026
(1668903586.441447) vcan0 158#0000000000000019
(1668903586.441449) vcan0 161#000005500108001C
(1668903586.442739) vcan0 191#010010A141000B
(1668903586.442764) vcan0 164#0000C01AA8000004
(1668903586.442766) vcan0 133#00000000A7
(1668903586.442768) vcan0 136#000200000000002A
(1668903586.442770) vcan0 13A#0000000000000028
(1668903586.442777) vcan0 13F#000000050000002E
(1668903586.444717) vcan0 17C#0000000010000021
(1668903586.444747) vcan0 18E#00006B
(1668903586.444750) vcan0 1CF#80050000003C
(1668903586.444752) vcan0 1DC#02000039
(1668903586.444754) vcan0 183#0000000C0000102D
(1668903586.446733) vcan0 143#6B6B00E0
(1668903586.448674) vcan0 095#800007F400000017
(1668903586.448699) vcan0 1A4#0000000800000010
(1668903586.448702) vcan0 1AA#7FFF000000006810
(1668903586.448703) vcan0 1B0#000F0000000157
(1668903586.448705) vcan0 039#0039
(1668903586.448706) vcan0 1D0#000000000000000A
(1668903586.451682) vcan0 166#D0320027
(1668903586.451709) vcan0 158#0000000000000028
(1668903586.451711) vcan0 161#000005500108002B
(1668903586.451712) vcan0 191#010010A141001A
(1668903586.452697) vcan0 244#000000010E
(1668903586.452801) vcan0 133#00000000B6
(1668903586.452818) vcan0 136#0002000000000039
(1668903586.452821) vcan0 13A#0000000000000037
(1668903586.452824) vcan0 13F#000000050000003D
(1668903586.452826) vcan0 164#0000C01AA8000013
(1668903586.454668) vcan0 17C#0000000010000030
(1668903586.454684) vcan0 18E#00007A
(1668903586.454686) vcan0 294#040B0002CF5A000E
(1668903586.454688) vcan0 21E#03E83745220601
(1668903586.454689) vcan0 183#000000090000103F
(1668903586.456478) vcan0 143#6B6B00FF
(1668903586.457685) vcan0 095#800007F400000026
(1668903586.461453) vcan0 166#D0320036
(1668903586.461472) vcan0 158#0000000000000037
(1668903586.461474) vcan0 161#000005500108003A
(1668903586.462624) vcan0 191#010010A1410029
(1668903586.462656) vcan0 164#0000C01AA8000022
(1668903586.462659) vcan0 133#0000000089
(1668903586.462660) vcan0 136#000200000000000C
(1668903586.462662) vcan0 13A#000000000000000A
(1668903586.462663) vcan0 039#000C
(1668903586.464669) vcan0 13F#0000000500000000
(1668903586.464695) vcan0 17C#0000000010000003
(1668903586.464697) vcan0 18E#00004D
(1668903586.464698) vcan0 1CF#80050000000F
(1668903586.464700) vcan0 1DC#0200000C
(1668903586.464713) vcan0 183#0000000E0000100D
(1668903586.465786) vcan0 143#6B6B00C2
(1668903586.465800) vcan0 244#00000001BC
(1668903586.467545) vcan0 095#800007F400000035
(1668903586.468609) vcan0 1A4#000000080000002F
(1668903586.468629) vcan0 1AA#7FFF000000006720
sparkCTF{9c985da3485798aa7a14ebd292afc1a9
d73d6160b5areyouserious?6fc42xd44cd92c} 
(1668903586.468632) vcan0 1B0#000F0000000166
(1668903586.468634) vcan0 1D0#000000000000000A
(1668903586.471358) vcan0 166#D0320009
(1668903586.471383) vcan0 158#000000000000000A
(1668903586.471386) vcan0 161#000005500108000D
(1668903586.472568) vcan0 191#010010A1410038
(1668903586.472605) vcan0 133#0000000098
(1668903586.472608) vcan0 136#000200000000001B
(1668903586.472610) vcan0 13A#0000000000000019
(1668903586.472612) vcan0 13F#000000050000001F
(1668903586.474515) vcan0 164#0000C01AA8000031
(1668903586.474534) vcan0 17C#0000000010000012
(1668903586.474537) vcan0 18E#00005C
(1668903586.476484) vcan0 183#0000000A00001010
(1668903586.476507) vcan0 244#00000001AB
(1668903586.476515) vcan0 143#6B6B00D1
(1668903586.476518) vcan0 039#001B
(1668903586.478472) vcan0 095#800007F400000008
NB2HI4DTHIXS6Z3JORUHKYROMNXW2L32N5WWE2LFINZGC2LHF5EUGU3JNU======
(1668903586.481436) vcan0 166#D0320018
(1668903586.481455) vcan0 158#0000000000000019
(1668903586.481458) vcan0 161#000005500108001C
(1668903586.482483) vcan0 188#00000000
(1668903586.482535) vcan0 191#010010A141000B
(1668903586.482551) vcan0 164#0000C01AA8000004
(1668903586.482553) vcan0 133#00000000A7
(1668903586.482554) vcan0 136#000200000000002A
(1668903586.482556) vcan0 13A#0000000000000028
(1668903586.484414) vcan0 13F#000000050000002E
(1668903586.484432) vcan0 17C#0000000010000021
(1668903586.484434) vcan0 18E#00006B
(1668903586.484436) vcan0 1CF#80050000001E
(1668903586.484438) vcan0 1DC#0200001B
(1668903586.484439) vcan0 183#0000000700001022
(1668903586.486405) vcan0 143#6B6B00E0
(1668903586.486433) vcan0 333#0000000000002D
(1668903586.487807) vcan0 244#000000014E
(1668903586.488003) vcan0 095#800007F400000017
(1668903586.488035) vcan0 1A4#000000080000003E
(1668903586.489494) vcan0 1AA#7FFF00000000673F
(1668903586.489518) vcan0 1B0#000F0000000175
(1668903586.489521) vcan0 1D0#000000000000000A
(1668903586.489522) vcan0 039#002A
(1668903586.490619) vcan0 166#D0320027
(1668903586.492355) vcan0 158#0000000000000028
(1668903586.492370) vcan0 161#000005500108002B
(1668903586.492372) vcan0 191#010010A141001A
(1668903586.492373) vcan0 133#00000000B6
(1668903586.492384) vcan0 136#0002000000000039
(1668903586.492386) vcan0 13A#0000000000000037
(1668903586.494322) vcan0 13F#000000050000003D
(1668903586.494344) vcan0 164#0000C01AA8000013
(1668903586.494348) vcan0 17C#0000000010000030
(1668903586.494350) vcan0 18E#00007A
(1668903586.494352) vcan0 294#040B0002CF5A001D
(1668903586.494382) vcan0 21E#03E83745220610
(1668903586.497093) vcan0 183#0000000500001033
(1668903586.497112) vcan0 143#6B6B00FF
(1668903586.498295) vcan0 095#800007F400000026
(1668903586.499334) vcan0 244#0000000109
(1668903586.500495) vcan0 166#D0320036
(1668903586.502273) vcan0 158#0000000000000037
(1668903586.502293) vcan0 161#000005500108003A
(1668903586.502306) vcan0 191#010010A1410029
(1668903586.502308) vcan0 164#0000C01AA8000022
(1668903586.502309) vcan0 133#0000000089
(1668903586.502311) vcan0 136#000200000000000C
(1668903586.504258) vcan0 13A#000000000000000A
(1668903586.504288) vcan0 13F#0000000500000000
(1668903586.504291) vcan0 17C#0000000010000003
(1668903586.504294) vcan0 18E#00004D
(1668903586.504296) vcan0 1CF#80050000002D
(1668903586.504298) vcan0 1DC#0200002A
(1668903586.504300) vcan0 320#000021
(1668903586.504303) vcan0 324#7465000000000E29
(1668903586.504305) vcan0 37C#FD00FD00097F0029
(1668903586.505391) vcan0 183#0000000300001008
(1668903586.505411) vcan0 143#6B6B00C2
(1668903586.508237) vcan0 095#800007F400000035
(1668903586.508256) vcan0 1A4#0000000800000001
(1668903586.508259) vcan0 1AA#7FFF000000006801
(1668903586.510715) vcan0 1B0#000F0000000148
(1668903586.510734) vcan0 1D0#000000000000000A
(1668903586.510737) vcan0 039#0039
(1668903586.510738) vcan0 166#D0320009
(1668903586.510741) vcan0 244#000000010E
(1668903586.512650) vcan0 158#000000000000000A
(1668903586.512671) vcan0 161#000005500108000D
(1668903586.512688) vcan0 191#010010A1410038
(1668903586.512691) vcan0 133#0000000098
(1668903586.512693) vcan0 136#000200000000001B
(1668903586.512695) vcan0 13A#0000000000000019
(1668903586.512696) vcan0 13F#000000050000001F
(1668903586.514642) vcan0 164#0000C01AA8000031
(1668903586.514662) vcan0 17C#0000000010000012
(1668903586.514667) vcan0 18E#00005C
(1668903586.515776) vcan0 183#0000000A00001010
(1668903586.515795) vcan0 143#6B6B00D1
(1668903586.517376) vcan0 095#800007F400000008
(1668903586.520046) vcan0 166#D0320018
(1668903586.521057) vcan0 244#0000000113
(1668903586.521308) vcan0 039#000C
(1668903586.521317) vcan0 158#0000000000000019
(1668903586.521320) vcan0 161#000005500108001C
(1668903586.522833) vcan0 191#010010A141000B
(1668903586.522849) vcan0 164#0000C01AA8000004
(1668903586.522851) vcan0 133#00000000A7
(1668903586.522852) vcan0 136#000200000000002A
(1668903586.522854) vcan0 13A#0000000000000028
(1668903586.522855) vcan0 13F#000000050000002E
(1668903586.523912) vcan0 17C#0000000010000021
(1668903586.523930) vcan0 18E#00006B
(1668903586.523932) vcan0 1CF#80050000003C
(1668903586.523934) vcan0 1DC#02000039
(1668903586.525343) vcan0 183#0000000700001022
(1668903586.525358) vcan0 143#6B6B00E0
(1668903586.528973) vcan0 095#800007F400000017
(1668903586.529005) vcan0 1A4#0000000800000010
(1668903586.529020) vcan0 1AA#7FFF000000006810
(1668903586.529022) vcan0 1B0#000F0000000157
(1668903586.529035) vcan0 1D0#000000000000000A
(1668903586.530748) vcan0 166#D0320027
(1668903586.532287) vcan0 158#0000000000000028
(1668903586.532302) vcan0 244#00000001CC
(1668903586.532314) vcan0 161#000005500108002B
(1668903586.532318) vcan0 191#010010A141001A
(1668903586.532326) vcan0 133#00000000B6
(1668903586.532329) vcan0 136#0002000000000039
(1668903586.532332) vcan0 13A#0000000000000037
(1668903586.534253) vcan0 13F#000000050000003D
(1668903586.534276) vcan0 164#0000C01AA8000013
(1668903586.534288) vcan0 17C#0000000010000030
(1668903586.534290) vcan0 18E#00007A
(1668903586.534292) vcan0 294#040B0002CF5A002C
(1668903586.534293) vcan0 21E#03E8374522062F
(1668903586.534295) vcan0 309#00000000000000B1
(1668903586.535780) vcan0 039#001B
(1668903586.535797) vcan0 183#0000000500001033
(1668903586.535800) vcan0 143#6B6B00FF
(1668903586.537215) vcan0 095#800007F400000026
(1668903586.541560) vcan0 166#D0320036
(1668903586.541587) vcan0 158#0000000000000037
(1668903586.541589) vcan0 161#000005500108003A
(1668903586.541591) vcan0 191#010010A1410029
(1668903586.543543) vcan0 164#0000C01AA9000021
(1668903586.543558) vcan0 244#000000019F
(1668903586.543563) vcan0 133#0000000089
(1668903586.543566) vcan0 136#000200000000000C
(1668903586.543568) vcan0 13A#000000000000000A
(1668903586.543570) vcan0 13F#0000000500000000
(1668903586.543571) vcan0 17C#0000000010000003
(1668903586.543578) vcan0 18E#00004D
(1668903586.543593) vcan0 1CF#80050000000F
(1668903586.543595) vcan0 1DC#0200000C
(1668903586.545524) vcan0 183#0000000B00001000
(1668903586.545544) vcan0 143#6B6B00C2
(1668903586.547511) vcan0 095#800007F400000035
(1668903586.547538) vcan0 305#8035
(1668903586.549528) vcan0 1A4#000000080000002F
(1668903586.549549) vcan0 1AA#7FFF000000006720
(1668903586.549552) vcan0 1B0#000F0000000166
(1668903586.549554) vcan0 1D0#000000000000000A
(1668903586.551479) vcan0 166#D0320009
(1668903586.551496) vcan0 158#000000000000000A
(1668903586.551499) vcan0 161#000005500108000D
(1668903586.551500) vcan0 191#010010A1410038
(1668903586.553465) vcan0 133#0000000098
(1668903586.553495) vcan0 136#000200000000001B
(1668903586.553497) vcan0 13A#0000000000000019
(1668903586.553499) vcan0 13F#000000050000001F
(1668903586.553500) vcan0 164#0000C01AA8000031
(1668903586.553502) vcan0 17C#0000000010000012
(1668903586.553503) vcan0 18E#00005C
(1668903586.555440) vcan0 039#002A
(1668903586.555451) vcan0 244#00000001ED
(1668903586.555460) vcan0 183#0000000800001012
(1668903586.555463) vcan0 143#6B6B00D1
(1668903586.557424) vcan0 095#800007F400000008
(1668903586.560891) vcan0 166#D0320018
(1668903586.562878) vcan0 158#0000000000000019
(1668903586.562903) vcan0 161#000005500108001C
(1668903586.562924) vcan0 191#010010A141000B
(1668903586.562927) vcan0 164#0000C01AA8000004
(1668903586.562930) vcan0 133#00000000A7
(1668903586.562934) vcan0 136#000200000000002A
(1668903586.562955) vcan0 13A#0000000000000028
(1668903586.562957) vcan0 13F#000000050000002E
(1668903586.564829) vcan0 17C#0000000010000021
(1668903586.564845) vcan0 18E#00006B
(1668903586.564849) vcan0 1CF#80050000001E
(1668903586.564851) vcan0 1DC#0200001B
(1668903586.564852) vcan0 183#0000000600001023
(1668903586.566851) vcan0 143#6B6B00E0
(1668903586.566907) vcan0 244#00000001D9
(1668903586.568797) vcan0 095#800007F400000017
(1668903586.568816) vcan0 1A4#000000080000003E
(1668903586.568820) vcan0 1AA#7FFF00000000673F
(1668903586.568821) vcan0 1B0#000F0000000175
(1668903586.568823) vcan0 1D0#000000000000000A
(1668903586.570863) vcan0 039#0039
(1668903586.570873) vcan0 166#D0320027
(1668903586.572828) vcan0 158#0000000000000028
(1668903586.572850) vcan0 161#000005500108002B
(1668903586.572856) vcan0 191#010010A141001A
(1668903586.572858) vcan0 133#00000000B6
(1668903586.572860) vcan0 136#0002000000000039
(1668903586.572862) vcan0 13A#0000000000000037
(1668903586.572864) vcan0 13F#000000050000003D
(1668903586.572866) vcan0 164#0000C01AA8000013
(1668903586.574795) vcan0 17C#0000000010000030
(1668903586.574804) vcan0 18E#00007A
(1668903586.574806) vcan0 294#040B0002CF5A003B
(1668903586.574808) vcan0 21E#03E8374522063E
(1668903586.574810) vcan0 183#0000000C0000103C
(1668903586.576779) vcan0 143#6B6B00FF
(1668903586.578781) vcan0 095#800007F800000022
(1668903586.578801) vcan0 244#00000001C5
(1668903586.580723) vcan0 166#D0320036
(1668903586.582166) vcan0 158#0000000000000037
(1668903586.582193) vcan0 161#000005500108003A
(1668903586.582195) vcan0 191#010010A1410029
(1668903586.582197) vcan0 164#0000C01AA8000022
(1668903586.582199) vcan0 133#0000000089
(1668903586.582200) vcan0 039#000C
(1668903586.584135) vcan0 136#000200000000000C
(1668903586.584153) vcan0 13A#000000000000000A
(1668903586.584155) vcan0 13F#0000000500000000
(1668903586.584157) vcan0 17C#0000000010000003
(1668903586.584158) vcan0 18E#00004D
(1668903586.584160) vcan0 1CF#80050000002D
(1668903586.584162) vcan0 1DC#0200002A
(1668903586.584163) vcan0 183#0000000900001002
(1668903586.586118) vcan0 143#6B6B00C2
(1668903586.586144) vcan0 333#0000000000003C
(1668903586.587190) vcan0 095#800007F800000031
(1668903586.589564) vcan0 1A4#0000000800000001
(1668903586.589585) vcan0 1AA#7FFF000000006801
(1668903586.589587) vcan0 1B0#000F0000000148
(1668903586.589589) vcan0 1D0#000000000000000A
(1668903586.589617) vcan0 244#00000001F0
(1668903586.591543) vcan0 166#D0320009
(1668903586.591568) vcan0 158#000000000000000A
(1668903586.591571) vcan0 161#000005500108000D
(1668903586.591572) vcan0 191#010010A1410038
(1668903586.593526) vcan0 133#0000000098
(1668903586.593557) vcan0 136#000200000000001B
(1668903586.593560) vcan0 13A#0000000000000019
(1668903586.593562) vcan0 13F#000000050000001F
(1668903586.593564) vcan0 164#0000C01AA8000031
(1668903586.593572) vcan0 17C#0000000010000012
(1668903586.593589) vcan0 18E#00005C
(1668903586.594845) vcan0 183#0000000E0000101C
(1668903586.596626) vcan0 143#6B6B00D1
(1668903586.596654) vcan0 039#001B
(1668903586.598490) vcan0 095#800007F800000004
(1668903586.600930) vcan0 166#D0320018
(1668903586.600982) vcan0 244#0000000131
(1668903586.602457) vcan0 158#0000000000000019
(1668903586.602488) vcan0 161#000005500108001C
(1668903586.602491) vcan0 191#010090A1410003
(1668903586.602493) vcan0 133#00000000A7
(1668903586.602495) vcan0 136#000200000000002A
(1668903586.602497) vcan0 13A#0000000000000028
(1668903586.604346) vcan0 13F#000000050000002E
(1668903586.604373) vcan0 164#0000C01AA8000004
(1668903586.604376) vcan0 17C#0000000010000021
(1668903586.604388) vcan0 18E#00006B
(1668903586.604390) vcan0 1CF#80050000003C
(1668903586.604391) vcan0 1DC#02000039
(1668903586.604393) vcan0 320#000030
(1668903586.604395) vcan0 324#7465000000000E38
(1668903586.604396) vcan0 37C#FD00FD00097F0038
(1668903586.606332) vcan0 183#0000000A0000102F
(1668903586.606353) vcan0 143#6B6B00E0
(1668903586.608317) vcan0 095#800007F800000013
(1668903586.608343) vcan0 1A4#0000000800000010
(1668903586.608345) vcan0 1AA#7FFF000000006810
(1668903586.608347) vcan0 1B0#000F0000000157
(1668903586.610101) vcan0 1D0#000000000000000A
(1668903586.610125) vcan0 039#002A
(1668903586.610127) vcan0 166#D0320027
(1668903586.611295) vcan0 158#0000000000000028
(1668903586.611315) vcan0 161#000005500108002B
(1668903586.612300) vcan0 244#0000000166
(1668903586.612346) vcan0 191#010090A1410012
(1668903586.612360) vcan0 133#00000000B6
(1668903586.612362) vcan0 136#0002000000000039
(1668903586.612364) vcan0 13A#0000000000000037
(1668903586.614270) vcan0 13F#000000050000003D
(1668903586.614295) vcan0 164#0000C01AA9000012
(1668903586.614297) vcan0 17C#0000000010000030
(1668903586.614299) vcan0 18E#00007A
(1668903586.614300) vcan0 294#040B0002CF5A000E
(1668903586.614302) vcan0 21E#03E83745220601
(1668903586.615758) vcan0 183#0000000F00001039
(1668903586.615785) vcan0 143#6B6B00FF
(1668903586.617235) vcan0 095#800007F800000022
(1668903586.621204) vcan0 166#D0320036
(1668903586.621234) vcan0 158#0000000000000037
(1668903586.623211) vcan0 161#000005500108003A
(1668903586.623239) vcan0 191#010090A1410021
(1668903586.623242) vcan0 164#0000C01AA8000022
(1668903586.623245) vcan0 133#0000000089
(1668903586.623246) vcan0 136#000200000000000C
(1668903586.623248) vcan0 13A#000000000000000A
(1668903586.623250) vcan0 13F#0000000500000000
(1668903586.623253) vcan0 17C#0000000010000003
(1668903586.623255) vcan0 18E#00004D
(1668903586.623255) vcan0 244#00000001A3
(1668903586.625188) vcan0 1CF#80050000000F
(1668903586.625207) vcan0 1DC#0200000C
(1668903586.625209) vcan0 183#0000001300001007
(1668903586.625211) vcan0 039#0039
(1668903586.625213) vcan0 143#6B6B00C2
(1668903586.627167) vcan0 095#800007F400000035
(1668903586.629893) vcan0 1A4#000000080000002F
(1668903586.629909) vcan0 1AA#7FFF000000006720
(1668903586.629912) vcan0 1B0#000F0000000166
(1668903586.629913) vcan0 1D0#000000000000000A
(1668903586.629915) vcan0 166#D0320009
(1668903586.631123) vcan0 158#000000000000000A
(1668903586.633124) vcan0 161#000005500108000D
(1668903586.633156) vcan0 191#010090A1410030
(1668903586.633159) vcan0 133#0000000098
(1668903586.633162) vcan0 136#000200000000001B
(1668903586.633164) vcan0 13A#0000000000000019
(1668903586.633165) vcan0 13F#000000050000001F
(1668903586.633167) vcan0 164#0000C01AA8000031
(1668903586.633169) vcan0 17C#0000000010000012
(1668903586.633170) vcan0 18E#00005C
(1668903586.635096) vcan0 309#0000000000000084
(1668903586.635113) vcan0 183#0000000E0000101C
(1668903586.635116) vcan0 244#0000000143
(1668903586.637071) vcan0 143#6B6B00D1
(1668903586.637102) vcan0 095#800007F400000008
(1668903586.639689) vcan0 039#000C
(1668903586.641042) vcan0 166#D0320018
(1668903586.641061) vcan0 158#0000000000000019
(1668903586.642929) vcan0 161#000005500108001C
(1668903586.642967) vcan0 191#010090A1410003
(1668903586.642985) vcan0 164#0000C01AA8000004
(1668903586.642988) vcan0 133#00000000A7
(1668903586.642992) vcan0 136#000200000000002A
(1668903586.643000) vcan0 13A#0000000000000028
(1668903586.643004) vcan0 13F#000000050000002E
(1668903586.643007) vcan0 17C#0000000010000021
(1668903586.644894) vcan0 18E#00006B
(1668903586.644926) vcan0 1CF#80050000001E
(1668903586.644941) vcan0 1DC#0200001B
(1668903586.644949) vcan0 183#0000000A0000102F
(1668903586.646881) vcan0 143#6B6B00E0
(1668903586.646924) vcan0 244#000000014D
(1668903586.649620) vcan0 095#800007F400000017
(1668903586.649629) vcan0 1A4#000000080000003E
(1668903586.649632) vcan0 1AA#7FFF00000000673F
(1668903586.649633) vcan0 1B0#000F0000000175
(1668903586.649636) vcan0 1D0#000000000000000A
(1668903586.650847) vcan0 166#D0320027
(1668903586.652736) vcan0 158#0000000000000028
(1668903586.652763) vcan0 161#000005500108002B
(1668903586.652765) vcan0 191#010090A1410012
(1668903586.652767) vcan0 133#00000000B6
(1668903586.652768) vcan0 136#0002000000000039
(1668903586.652770) vcan0 039#001B
(1668903586.652772) vcan0 13A#0000000000000037
(1668903586.652773) vcan0 13F#000000050000003D
(1668903586.654727) vcan0 164#0000C01AA8000013
(1668903586.654744) vcan0 17C#0000000010000030
(1668903586.654746) vcan0 18E#00007A
(1668903586.654748) vcan0 294#040B0002CF5A001D
(1668903586.654750) vcan0 305#8008
(1668903586.654751) vcan0 21E#03E83745220610
(1668903586.654753) vcan0 183#0000000700001031
(1668903586.655949) vcan0 143#6B6B00FF
(1668903586.657701) vcan0 095#800007F400000026
(1668903586.657726) vcan0 5A1#960000000000622F
(1668903586.658683) vcan0 244#0000000181
(1668903586.661620) vcan0 166#D0320036
(1668903586.661650) vcan0 158#0000000000000037
(1668903586.661653) vcan0 161#000005500108003A
(1668903586.661654) vcan0 191#010090A1410021
(1668903586.663655) vcan0 133#0000000089
(1668903586.663686) vcan0 136#000200000000000C
(1668903586.663688) vcan0 13A#000000000000000A
(1668903586.663690) vcan0 13F#0000000500000000
(1668903586.663692) vcan0 164#0000C01AA8000022
(1668903586.663694) vcan0 17C#0000000010000003
(1668903586.663696) vcan0 18E#00004D
(1668903586.663698) vcan0 1CF#80050000002D
(1668903586.663700) vcan0 1DC#0200002A
(1668903586.665627) vcan0 183#0000000500001006
(1668903586.665647) vcan0 143#6B6B00C2
(1668903586.665649) vcan0 039#002A
(1668903586.667598) vcan0 095#800007F400000035
(1668903586.669581) vcan0 1A4#0000000800000001
(1668903586.669595) vcan0 244#0000000158
(1668903586.669602) vcan0 1AA#7FFF000000006801
(1668903586.669605) vcan0 1B0#000F0000000148
(1668903586.669607) vcan0 1D0#000000000000000A
(1668903586.671278) vcan0 166#D0320009
(1668903586.671296) vcan0 158#000000000000000A
(1668903586.671298) vcan0 161#000005500108000D
(1668903586.672942) vcan0 191#010090A1410030
(1668903586.672961) vcan0 133#0000000098
(1668903586.672963) vcan0 136#000200000000001B
(1668903586.672965) vcan0 13A#0000000000000019
(1668903586.672967) vcan0 13F#000000050000001F
(1668903586.672968) vcan0 164#0000C01AA8000031
(1668903586.674531) vcan0 17C#0000000010000012
(1668903586.674554) vcan0 18E#00005C
(1668903586.676495) vcan0 183#0000000B0000101F
(1668903586.676512) vcan0 143#6B6B00D1
(1668903586.678508) vcan0 095#800007F400000008
(1668903586.678517) vcan0 039#0039
(1668903586.680465) vcan0 166#D0320018
(1668903586.681510) vcan0 244#00000001C3
(1668903586.681597) vcan0 158#0000000000000019
(1668903586.681616) vcan0 161#000005500108001C
(1668903586.681619) vcan0 191#010090A1410003
(1668903586.683454) vcan0 133#00000000A7
(1668903586.683473) vcan0 136#000200000000002A
(1668903586.683476) vcan0 13A#0000000000000028
(1668903586.683477) vcan0 13F#000000050000002E
(1668903586.683480) vcan0 164#0000C01AA8000004
(1668903586.683482) vcan0 17C#0000000010000021
(1668903586.683483) vcan0 18E#00006B
(1668903586.683484) vcan0 1CF#80050000003C
(1668903586.684888) vcan0 1DC#02000039
(1668903586.684906) vcan0 183#0000000800001021
(1668903586.686586) vcan0 143#6B6B00E0
(1668903586.686595) vcan0 333#0000000000000F
(1668903586.688258) vcan0 095#800007F400000017
(1668903586.688279) vcan0 1A4#0000000800000010
(1668903586.688281) vcan0 1AA#7FFF000000006810
(1668903586.689880) vcan0 1B0#000F0000000157
(1668903586.689890) vcan0 1D0#000000000000000A
(1668903586.689892) vcan0 166#D0320027
(1668903586.691832) vcan0 158#0000000000000028
(1668903586.691854) vcan0 161#000005500108002B
(1668903586.691857) vcan0 191#010090A1410012
(1668903586.691859) vcan0 133#00000000B6
(1668903586.691862) vcan0 244#000000017F
(1668903586.694170) vcan0 136#0002000000000039
(1668903586.694191) vcan0 13A#0000000000000037
(1668903586.694193) vcan0 13F#000000050000003D
(1668903586.694195) vcan0 164#0000C01AA8000013
(1668903586.694197) vcan0 17C#0000000010000030
(1668903586.694199) vcan0 18E#00007A
(1668903586.694208) vcan0 294#040B0002CF5A002C
(1668903586.694210) vcan0 21E#03E8374522062F
(1668903586.695268) vcan0 183#0000000D0000103B
(1668903586.695289) vcan0 143#6B6B00FF
(1668903586.698993) vcan0 095#800007F400000026
(1668903586.699018) vcan0 039#000C
(1668903586.700450) vcan0 166#D0320036
(1668903586.702801) vcan0 158#0000000000000037
(1668903586.702810) vcan0 161#000005500108003A
(1668903586.702813) vcan0 191#010090A1410021
(1668903586.702815) vcan0 133#0000000089
(1668903586.702818) vcan0 136#000200000000000C
(1668903586.702820) vcan0 13A#000000000000000A
(1668903586.702822) vcan0 13F#0000000500000000
(1668903586.702824) vcan0 164#0000C01AA8000022
(1668903586.702857) vcan0 244#000000010C
(1668903586.705224) vcan0 17C#0000000010000003
(1668903586.705244) vcan0 18E#00004D
(1668903586.705246) vcan0 1CF#80050000000F
(1668903586.705248) vcan0 1DC#0200000C
(1668903586.705249) vcan0 320#000003
(1668903586.705251) vcan0 324#7465000000000E0B
(1668903586.705253) vcan0 37C#FD00FD00097F000B
(1668903586.705255) vcan0 183#0000000900001002
(1668903586.705256) vcan0 40C#033133383439000D
(1668903586.705258) vcan0 454#23EF09
(1668903586.706754) vcan0 143#6B6B00C2
(1668903586.708737) vcan0 095#800007F400000035
(1668903586.708745) vcan0 1A4#000000080000002F
(1668903586.708747) vcan0 1AA#7FFF000000006720
(1668903586.708749) vcan0 1B0#000F0000000166
(1668903586.708751) vcan0 1D0#000000000000000A
(1668903586.710721) vcan0 166#D0320009
(1668903586.712698) vcan0 158#000000000000000A
(1668903586.712716) vcan0 161#000005500108000D
(1668903586.712718) vcan0 191#010090A1410030
(1668903586.712720) vcan0 18E#00005C
(1668903586.712721) vcan0 133#0000000098
(1668903586.712723) vcan0 136#000200000000001B
(1668903586.712726) vcan0 13A#0000000000000019
(1668903586.712728) vcan0 039#001B
(1668903586.713915) vcan0 244#0000000109
(1668903586.713970) vcan0 13F#000000050000001F
(1668903586.713978) vcan0 164#0000C01AA8000031
(1668903586.713981) vcan0 17C#0000000010000012
(1668903586.715411) vcan0 183#0000000600001014
(1668903586.715420) vcan0 143#6B6B00D1
(1668903586.718087) vcan0 095#800007F400000008
(1668903586.721622) vcan0 166#D0320018
(1668903586.721653) vcan0 158#0000000000000019
(1668903586.721658) vcan0 161#000005500108001C
(1668903586.721660) vcan0 191#010090A1410003
(1668903586.723634) vcan0 164#0000C01AA8000004
(1668903586.723655) vcan0 133#00000000A7
(1668903586.723657) vcan0 136#000200000000002A
(1668903586.723660) vcan0 13A#0000000000000028
(1668903586.723661) vcan0 13F#000000050000002E
(1668903586.723663) vcan0 17C#0000000010000021
(1668903586.723665) vcan0 18E#00006B
(1668903586.723668) vcan0 1CF#80050000001E
(1668903586.723670) vcan0 1DC#0200001B
(1668903586.725316) vcan0 183#0000000C0000102D
(1668903586.725341) vcan0 143#6B6B00E0
(1668903586.725341) vcan0 244#0000000137
(1668903586.727226) vcan0 095#800007F400000017
(1668903586.729230) vcan0 039#002A
(1668903586.729260) vcan0 1A4#000000080000003E
(1668903586.729263) vcan0 1AA#7FFF00000000673F
(1668903586.729265) vcan0 1B0#000F0000000175
(1668903586.729266) vcan0 1D0#000000000000000A
(1668903586.731209) vcan0 166#D0320027
(1668903586.731219) vcan0 158#0000000000000028
(1668903586.732461) vcan0 161#000005500108002B
(1668903586.732478) vcan0 191#010090A1410012
(1668903586.732480) vcan0 133#00000000B6
(1668903586.732482) vcan0 136#0002000000000039
(1668903586.732486) vcan0 13A#0000000000000037
(1668903586.734410) vcan0 13F#000000050000003D
(1668903586.734429) vcan0 164#0000C01AA8000013
(1668903586.734431) vcan0 17C#0000000010000030
(1668903586.734433) vcan0 18E#00007A
(1668903586.734434) vcan0 294#040B0002CF5A003B
(1668903586.734436) vcan0 21E#03E8374522063E
(1668903586.734437) vcan0 309#0000000000000093
(1668903586.734439) vcan0 428#01040000521C10
(1668903586.736319) vcan0 405#000004000000001A
(1668903586.736341) vcan0 183#000000090000103F
(1668903586.736343) vcan0 143#6B6B00FF
(1668903586.736346) vcan0 244#00000001B7
(1668903586.738300) vcan0 095#800007F400000026
(1668903586.740073) vcan0 166#D0320036
(1668903586.741437) vcan0 158#0000000000000037
(1668903586.741456) vcan0 161#000005500108003A
(1668903586.743266) vcan0 191#010090A1410021
(1668903586.743274) vcan0 039#0039
(1668903586.743276) vcan0 133#0000000089
(1668903586.743278) vcan0 136#000200000000000C
(1668903586.743280) vcan0 13A#000000000000000A
(1668903586.743281) vcan0 13F#0000000500000000
(1668903586.743288) vcan0 164#0000C01AA8000022
(1668903586.743290) vcan0 17C#0000000010000003
(1668903586.743291) vcan0 18E#00004D
(1668903586.745244) vcan0 1CF#80050000002D
(1668903586.745274) vcan0 1DC#0200002A
(1668903586.745277) vcan0 183#0000000E0000100D
(1668903586.745279) vcan0 143#6B6B00C2
(1668903586.747246) vcan0 095#800007F400000035
(1668903586.747260) vcan0 244#0000000120
(1668903586.749215) vcan0 1A4#0000000800000001
(1668903586.749238) vcan0 1AA#7FFF000000006801
(1668903586.749243) vcan0 1B0#000F0000000148
(1668903586.749245) vcan0 1D0#000000000000000A
(1668903586.751659) vcan0 166#D0320009
(1668903586.751669) vcan0 158#000000000000000A
(1668903586.751671) vcan0 161#000005500108000D
(1668903586.751673) vcan0 191#010090A1410030
(1668903586.753634) vcan0 133#0000000098
(1668903586.753659) vcan0 136#000200000000001B
(1668903586.753671) vcan0 13A#0000000000000019
(1668903586.753673) vcan0 13F#000000050000001F
(1668903586.753674) vcan0 164#0000C01AA8000031
(1668903586.753676) vcan0 17C#0000000010000012
(1668903586.753677) vcan0 18E#00005C
(1668903586.755622) vcan0 183#0000000A00001010
(1668903586.755651) vcan0 039#000C
(1668903586.755665) vcan0 143#6B6B00D1
(1668903586.755668) vcan0 305#8017
(1668903586.757633) vcan0 095#800007F400000008
(1668903586.758629) vcan0 244#00000001E2
(1668903586.760578) vcan0 166#D0320018
(1668903586.762566) vcan0 158#0000000000000019
(1668903586.762584) vcan0 161#000005500108001C
(1668903586.762586) vcan0 191#010090A1410003
(1668903586.762588) vcan0 133#00000000A7
(1668903586.762589) vcan0 136#000200000000002A
(1668903586.762590) vcan0 13A#0000000000000028
(1668903586.762592) vcan0 13F#000000050000002E
(1668903586.763757) vcan0 164#0000C01AA8000004
(1668903586.763777) vcan0 17C#0000000010000021
(1668903586.763780) vcan0 18E#00006B
(1668903586.763782) vcan0 1CF#80050000003C
(1668903586.763784) vcan0 1DC#02000039
(1668903586.765090) vcan0 183#0000000700001022
(1668903586.766156) vcan0 143#6B6B00E0
(1668903586.767383) vcan0 095#800007F400000017
(1668903586.768540) vcan0 1A4#0000000800000010
(1668903586.768546) vcan0 1AA#7FFF000000006810
(1668903586.768548) vcan0 1B0#000F0000000157
(1668903586.768550) vcan0 1D0#000000000000000A
(1668903586.770670) vcan0 166#D0320027
(1668903586.770925) vcan0 244#000000013F
(1668903586.771761) vcan0 158#0000000000000028
(1668903586.771779) vcan0 161#000005500108002B
(1668903586.771782) vcan0 191#010090A1410012
(1668903586.771783) vcan0 133#00000000B6
(1668903586.773190) vcan0 136#0002000000000039
(1668903586.773200) vcan0 039#001B
(1668903586.773203) vcan0 13A#0000000000000037
(1668903586.773205) vcan0 13F#000000050000003D
(1668903586.773207) vcan0 164#0000C01AA8000013
(1668903586.773209) vcan0 17C#0000000010000030
(1668903586.774503) vcan0 18E#00007A
(1668903586.774521) vcan0 294#040B0002CF5A000E
(1668903586.774523) vcan0 21E#03E83745220601
(1668903586.776454) vcan0 183#0000000D0000103B
(1668903586.776461) vcan0 143#6B6B00FF
(1668903586.778443) vcan0 095#800007F400000026
(1668903586.780419) vcan0 166#D0320036
(1668903586.782408) vcan0 158#0000000000000037
(1668903586.782416) vcan0 161#000005500108003A
(1668903586.782419) vcan0 191#010090A1410021
(1668903586.782421) vcan0 164#0000C01AA8000022
(1668903586.782422) vcan0 133#0000000089
(1668903586.782424) vcan0 136#000200000000000C
(1668903586.782443) vcan0 244#0000000119
(1668903586.784388) vcan0 13A#000000000000000A
(1668903586.784407) vcan0 13F#0000000500000000
(1668903586.784409) vcan0 17C#0000000010000003
(1668903586.784411) vcan0 18E#00004D
(1668903586.784413) vcan0 1CF#80050000000F
(1668903586.784416) vcan0 1DC#0200000C
(1668903586.784418) vcan0 183#0000000900001002
(1668903586.786399) vcan0 039#002A
(1668903586.786423) vcan0 143#6B6B00C2
(1668903586.786427) vcan0 333#0000000000001E
(1668903586.788341) vcan0 095#800007F400000035
(1668903586.788351) vcan0 1A4#000000080000002F
(1668903586.788353) vcan0 1AA#7FFF000000006720
(1668903586.788355) vcan0 1B0#000F0000000166
(1668903586.789631) vcan0 1D0#000000000000000A
(1668903586.791333) vcan0 166#D0320009
(1668903586.791358) vcan0 158#000000000000000A
(1668903586.791361) vcan0 161#000005500108000D
(1668903586.792439) vcan0 191#010090A1410030
(1668903586.792447) vcan0 133#0000000098
(1668903586.792449) vcan0 136#000200000000001B
(1668903586.792451) vcan0 13A#0000000000000019
(1668903586.794297) vcan0 13F#000000050000001F
(1668903586.794321) vcan0 164#0000C01AA8000031
(1668903586.794323) vcan0 17C#0000000010000012
(1668903586.794325) vcan0 18E#00005C
(1668903586.794351) vcan0 244#00000001FE
(1668903586.796283) vcan0 183#0000000600001014
(1668903586.796310) vcan0 143#6B6B00D1
(1668903586.798269) vcan0 095#800007F400000008
(1668903586.800262) vcan0 166#D0320018
(1668903586.802241) vcan0 158#0000000000000019
(1668903586.802259) vcan0 161#000005500108001C
(1668903586.802262) vcan0 191#010090A1410003
(1668903586.802264) vcan0 164#0000C01AA8000004
(1668903586.802265) vcan0 133#00000000A7
(1668903586.802267) vcan0 136#000200000000002A
(1668903586.803678) vcan0 13A#0000000000000028
(1668903586.803705) vcan0 13F#000000050000002E
(1668903586.803707) vcan0 17C#0000000010000021
(1668903586.803709) vcan0 18E#00006B
(1668903586.803712) vcan0 1CF#80050000001E
(1668903586.803714) vcan0 1DC#0200001B
(1668903586.803715) vcan0 320#000012
(1668903586.804796) vcan0 324#7465000000000E1A
(1668903586.804825) vcan0 37C#FD00FD00097F001A
(1668903586.804827) vcan0 039#0039
(1668903586.804830) vcan0 183#0000000C0000102D
(1668903586.805407) vcan0 244#00000001EA
(1668903586.805873) vcan0 143#6B6B00E0
(1668903586.807195) vcan0 095#800007F400000017
(1668903586.809175) vcan0 1A4#000000080000003E
(1668903586.809207) vcan0 1AA#7FFF00000000673F
(1668903586.809222) vcan0 1B0#000F0000000175
(1668903586.809224) vcan0 1D0#000000000000000A
(1668903586.811201) vcan0 166#D0320027
(1668903586.811225) vcan0 158#0000000000000028
(1668903586.813141) vcan0 161#000005500108002B
(1668903586.813168) vcan0 191#010090A1410012
(1668903586.813181) vcan0 133#00000000B6
(1668903586.813183) vcan0 136#0002000000000039
(1668903586.813185) vcan0 13A#0000000000000037
(1668903586.813187) vcan0 13F#000000050000003D
(1668903586.813189) vcan0 164#0000C01AA9000012
(1668903586.813202) vcan0 17C#0000000010000030
(1668903586.813219) vcan0 18E#00007A
(1668903586.814357) vcan0 294#040B0002CF5A001D
(1668903586.814386) vcan0 21E#03E83745220610
(1668903586.816139) vcan0 183#000000090000103F
(1668903586.816162) vcan0 143#6B6B00FF
(1668903586.816701) vcan0 244#00000001F1
(1668903586.817382) vcan0 039#000C
(1668903586.817400) vcan0 095#800007F400000026
(1668903586.820613) vcan0 166#D0320036
(1668903586.821824) vcan0 158#0000000000000037
(1668903586.821848) vcan0 161#000005500108003A
(1668903586.821850) vcan0 191#010090A1410021
(1668903586.821852) vcan0 164#0000C01AA9000021
(1668903586.823555) vcan0 133#0000000089
(1668903586.823581) vcan0 136#000200000000000C
(1668903586.823584) vcan0 13A#000000000000000A
(1668903586.823585) vcan0 13F#0000000500000000
(1668903586.823587) vcan0 17C#0000000010000003
(1668903586.823588) vcan0 18E#00004D
(1668903586.823590) vcan0 1CF#80050000002D
(1668903586.823591) vcan0 1DC#0200002A
(1668903586.825058) vcan0 183#0000000E0000100D
(1668903586.826563) vcan0 143#6B6B00C2
(1668903586.827619) vcan0 244#0000000145
(1668903586.827680) vcan0 095#800007F400000035
(1668903586.828925) vcan0 1A4#0000000800000001
(1668903586.828934) vcan0 1AA#7FFF000000006801
(1668903586.828937) vcan0 1B0#000F0000000148
(1668903586.828939) vcan0 1D0#000000000000000A
(1668903586.830503) vcan0 166#D0320009
(1668903586.831722) vcan0 158#000000000000000A
(1668903586.831745) vcan0 161#000005500108000D
(1668903586.831747) vcan0 191#010090A1410030
(1668903586.831749) vcan0 039#001B
(1668903586.833482) vcan0 133#0000000098
(1668903586.833507) vcan0 136#000200000000001B
(1668903586.833510) vcan0 13A#0000000000000019
(1668903586.833511) vcan0 13F#000000050000001F
(1668903586.833513) vcan0 164#0000C01AA8000031
(1668903586.833515) vcan0 17C#0000000010000012
(1668903586.833517) vcan0 18E#00005C
(1668903586.833519) vcan0 309#00000000000000A2
(1668903586.835455) vcan0 183#0000000A00001010
(1668903586.835479) vcan0 143#6B6B00D1
(1668903586.837925) vcan0 095#800007F400000008
(1668903586.839031) vcan0 244#0000000154
(1668903586.840564) vcan0 166#D0320018
(1668903586.841900) vcan0 158#0000000000000019
(1668903586.841923) vcan0 161#000005500108001C
(1668903586.841925) vcan0 191#010090A1410003
(1668903586.841927) vcan0 133#00000000A7
(1668903586.842978) vcan0 136#000200000000002A
(1668903586.842989) vcan0 13A#0000000000000028
(1668903586.842992) vcan0 13F#000000050000002E
(1668903586.842994) vcan0 164#0000C01AA8000004
(1668903586.842996) vcan0 17C#0000000010000021
(1668903586.844857) vcan0 18E#00006B
(1668903586.844877) vcan0 1CF#80050000003C
(1668903586.844879) vcan0 1DC#02000039
(1668903586.844881) vcan0 183#0000000700001022
(1668903586.846862) vcan0 143#6B6B00E0
(1668903586.846874) vcan0 039#002A
(1668903586.848822) vcan0 095#800007F400000017
(1668903586.848829) vcan0 1A4#0000000800000010
(1668903586.848832) vcan0 1AA#7FFF000000006810
(1668903586.848834) vcan0 1B0#000F0000000157
(1668903586.848835) vcan0 1D0#000000000000000A
(1668903586.850816) vcan0 166#D0320027
(1668903586.850848) vcan0 244#0000000117
(1668903586.852796) vcan0 158#0000000000000028
(1668903586.852821) vcan0 161#000005500108002B
(1668903586.852823) vcan0 191#010090A1410012
(1668903586.852825) vcan0 133#00000000B6
(1668903586.852826) vcan0 136#0002000000000039
(1668903586.852828) vcan0 13A#0000000000000037
(1668903586.852829) vcan0 13F#000000050000003D
(1668903586.852831) vcan0 164#0000C01AA8000013
(1668903586.854780) vcan0 17C#0000000010000030
(1668903586.854804) vcan0 18E#00007A
(1668903586.854807) vcan0 294#040B0002CF5A002C
(1668903586.854809) vcan0 21E#03E8374522062F
(1668903586.854810) vcan0 183#0000000500001033
(1668903586.856061) vcan0 143#6B6B00FF
(1668903586.857413) vcan0 095#800007F400000026
(1668903586.861005) vcan0 166#D0320036
(1668903586.861023) vcan0 039#0039
(1668903586.862706) vcan0 158#0000000000000037
(1668903586.862714) vcan0 161#000005500108003A
(1668903586.862717) vcan0 191#010090A1410021
(1668903586.862718) vcan0 305#8026
(1668903586.862720) vcan0 133#0000000089
(1668903586.862721) vcan0 136#000200000000000C
(1668903586.862723) vcan0 13A#000000000000000A
(1668903586.862724) vcan0 13F#0000000500000000
(1668903586.862747) vcan0 244#0000000170
(1668903586.863957) vcan0 164#0000C01AA8000022
(1668903586.863978) vcan0 17C#0000000010000003
(1668903586.863981) vcan0 18E#00004D
(1668903586.863983) vcan0 1CF#80050000000F
(1668903586.863984) vcan0 1DC#0200000C
(1668903586.865686) vcan0 183#0000000300001008
(1668903586.865707) vcan0 143#6B6B00C2
(1668903586.869039) vcan0 095#800007F400000035
(1668903586.869075) vcan0 1A4#000000080000002F
(1668903586.869079) vcan0 1AA#7FFF000000006720
(1668903586.869081) vcan0 1B0#000F0000000166
(1668903586.869084) vcan0 1D0#000000000000000A
(1668903586.870715) vcan0 166#D0320009
(1668903586.872019) vcan0 158#000000000000000A
(1668903586.872036) vcan0 161#000005500108000D
(1668903586.872038) vcan0 191#010090A1410030
(1668903586.872039) vcan0 133#0000000098
(1668903586.872040) vcan0 136#000200000000001B
(1668903586.874021) vcan0 13A#0000000000000019
(1668903586.874030) vcan0 13F#000000050000001F
(1668903586.874032) vcan0 164#0000C01AA8000031
(1668903586.874034) vcan0 17C#0000000010000012
(1668903586.874049) vcan0 18E#00005C
(1668903586.874224) vcan0 244#0000000105
(1668903586.875104) vcan0 039#000C
(1668903586.875113) vcan0 183#0000000A00001010
(1668903586.876964) vcan0 143#6B6B00D1
(1668903586.878144) vcan0 095#800007F400000008
(1668903586.880906) vcan0 166#D0320018
(1668903586.882899) vcan0 158#0000000000000019
(1668903586.882930) vcan0 161#000005500108001C
(1668903586.882945) vcan0 191#010090A1410003
(1668903586.882948) vcan0 133#00000000A7
(1668903586.882950) vcan0 136#000200000000002A
(1668903586.882952) vcan0 13A#0000000000000028
(1668903586.882954) vcan0 13F#000000050000002E
(1668903586.882978) vcan0 164#0000C01AA8000004
(1668903586.882994) vcan0 17C#0000000010000021
(1668903586.884788) vcan0 244#0000000180
(1668903586.884865) vcan0 18E#00006B
(1668903586.884882) vcan0 1CF#80050000001E
(1668903586.884885) vcan0 1DC#0200001B
(1668903586.884886) vcan0 183#0000000700001022
(1668903586.886861) vcan0 143#6B6B00E0
(1668903586.886868) vcan0 333#0000000000002D
(1668903586.888838) vcan0 095#800007F400000017
(1668903586.888879) vcan0 1A4#000000080000003E
(1668903586.888883) vcan0 1AA#7FFF00000000673F
(1668903586.888886) vcan0 1B0#000F0000000175
(1668903586.888888) vcan0 1D0#000000000000000A
(1668903586.888891) vcan0 039#001B
(1668903586.890855) vcan0 166#D0320027
(1668903586.892066) vcan0 158#0000000000000028
(1668903586.892087) vcan0 161#000005500108002B
(1668903586.892089) vcan0 191#010090A1410012
(1668903586.892091) vcan0 133#00000000B6
(1668903586.892092) vcan0 136#0002000000000039
(1668903586.893243) vcan0 13A#0000000000000037
(1668903586.893268) vcan0 13F#000000050000003D
(1668903586.893271) vcan0 164#0000C01AA8000013
(1668903586.893273) vcan0 17C#0000000010000030
(1668903586.893282) vcan0 18E#00007A
(1668903586.894806) vcan0 294#040B0002CF5A003B
(1668903586.894830) vcan0 21E#03E8374522063E
(1668903586.894833) vcan0 183#0000000500001033
(1668903586.896769) vcan0 143#6B6B00FF
(1668903586.896961) vcan0 244#000000012B
(1668903586.898774) vcan0 095#800007F400000026
(1668903586.900457) vcan0 166#D0320036
(1668903586.901752) vcan0 158#0000000000000037
(1668903586.901779) vcan0 161#000005500108003A
(1668903586.901782) vcan0 191#010010A1410029
(1668903586.901784) vcan0 133#0000000089
(1668903586.903389) vcan0 136#000200000000000C
(1668903586.903408) vcan0 13A#000000000000000A
(1668903586.903410) vcan0 13F#0000000500000000
(1668903586.903412) vcan0 164#0000C01AA8000022
(1668903586.903414) vcan0 17C#0000000010000003
(1668903586.903416) vcan0 18E#00004D
(1668903586.903417) vcan0 1CF#80050000002D
(1668903586.904693) vcan0 1DC#0200002A
(1668903586.904717) vcan0 320#000021
(1668903586.904719) vcan0 324#7465000000000E29
(1668903586.904721) vcan0 37C#FD00FD00097F0029
(1668903586.904722) vcan0 183#0000000B00001000
(1668903586.906722) vcan0 143#6B6B00C2
(1668903586.908689) vcan0 095#800007F400000035
(1668903586.908697) vcan0 244#000000010E
(1668903586.908732) vcan0 1A4#0000000800000001
(1668903586.908748) vcan0 1AA#7FFF000000006801
(1668903586.908750) vcan0 1B0#000F0000000148
(1668903586.908752) vcan0 1D0#000000000000000A
(1668903586.908754) vcan0 039#002A
(1668903586.910514) vcan0 166#D0320009
(1668903586.911639) vcan0 158#000000000000000A
(1668903586.911659) vcan0 161#000005500108000D
(1668903586.911661) vcan0 191#010010A1410038
(1668903586.913629) vcan0 133#0000000098
(1668903586.913646) vcan0 136#000200000000001B
(1668903586.913649) vcan0 13A#0000000000000019
(1668903586.913650) vcan0 13F#000000050000001F
(1668903586.913652) vcan0 164#0000C01AA8000031
(1668903586.913654) vcan0 17C#0000000010000012
(1668903586.913656) vcan0 18E#00005C
(1668903586.915597) vcan0 183#0000000800001012
(1668903586.915615) vcan0 143#6B6B00D1
(1668903586.917586) vcan0 095#800007F400000008
(1668903586.920601) vcan0 244#0000000175
(1668903586.920706) vcan0 166#D0320018
(1668903586.921758) vcan0 158#0000000000000019
(1668903586.921780) vcan0 161#000005500108001C
(1668903586.921783) vcan0 191#010010A141000B
(1668903586.921785) vcan0 039#0039
(1668903586.923509) vcan0 133#00000000A7
(1668903586.923532) vcan0 136#000200000000002A
(1668903586.923534) vcan0 13A#0000000000000028
(1668903586.923536) vcan0 13F#000000050000002E
(1668903586.923537) vcan0 164#0000C01AA8000004
(1668903586.923538) vcan0 17C#0000000010000021
(1668903586.923540) vcan0 18E#00006B
(1668903586.923543) vcan0 1CF#80050000003C
(1668903586.925485) vcan0 1DC#02000039
(1668903586.925503) vcan0 183#0000000D0000102C
(1668903586.925505) vcan0 143#6B6B00E0
(1668903586.927998) vcan0 095#800007F400000017
(1668903586.928049) vcan0 1A4#0000000800000010
(1668903586.929282) vcan0 1AA#7FFF000000006810
(1668903586.929306) vcan0 1B0#000F0000000157
(1668903586.929308) vcan0 1D0#000000000000000A
(1668903586.930353) vcan0 166#D0320027
(1668903586.931433) vcan0 158#0000000000000028
(1668903586.931445) vcan0 161#000005500108002B
(1668903586.931922) vcan0 244#000000018D
(1668903586.933331) vcan0 191#010010A141001A
(1668903586.933356) vcan0 133#00000000B6
(1668903586.933360) vcan0 136#0002000000000039
(1668903586.933363) vcan0 13A#0000000000000037
(1668903586.933365) vcan0 13F#000000050000003D
(1668903586.933367) vcan0 164#0000C01AA8000013
(1668903586.933369) vcan0 17C#0000000010000030
(1668903586.933371) vcan0 18E#00007A
(1668903586.933373) vcan0 294#040B0002CF5A000E
(1668903586.934436) vcan0 21E#03E83745220601
(1668903586.934455) vcan0 309#00000000000000B1
(1668903586.935528) vcan0 183#0000001100001036
(1668903586.935545) vcan0 143#6B6B00FF
(1668903586.937596) vcan0 039#000C
(1668903586.937620) vcan0 095#800007F400000026
(1668903586.941550) vcan0 166#D0320036
(1668903586.941570) vcan0 158#0000000000000037
(1668903586.941573) vcan0 161#000005500108003A
(1668903586.941575) vcan0 191#010010A1410029
(1668903586.943531) vcan0 164#0000C01AA8000022
(1668903586.943552) vcan0 133#0000000089
(1668903586.943553) vcan0 244#000000019C
(1668903586.943555) vcan0 136#000200000000000C
(1668903586.943557) vcan0 13A#000000000000000A
(1668903586.943559) vcan0 13F#0000000500000000
(1668903586.943560) vcan0 17C#0000000010000003
(1668903586.943562) vcan0 18E#00004D
(1668903586.943564) vcan0 1CF#80050000000F
(1668903586.943585) vcan0 1DC#0200000C
(1668903586.944733) vcan0 183#0000000C0000100F
(1668903586.946503) vcan0 143#6B6B00C2
(1668903586.947600) vcan0 095#800007F400000035
(1668903586.949485) vcan0 1A4#000000080000002F
(1668903586.949507) vcan0 1AA#7FFF000000006720
(1668903586.949509) vcan0 1B0#000F0000000166
(1668903586.949512) vcan0 1D0#000000000000000A
(1668903586.951481) vcan0 166#D0320009
(1668903586.951506) vcan0 158#000000000000000A
(1668903586.951509) vcan0 161#000005500108000D
(1668903586.951511) vcan0 191#010010A1410038
(1668903586.952770) vcan0 039#001B
(1668903586.952793) vcan0 133#0000000098
(1668903586.952795) vcan0 136#000200000000001B
(1668903586.952797) vcan0 13A#0000000000000019
(1668903586.952799) vcan0 13F#000000050000001F
(1668903586.952801) vcan0 164#0000C01AA8000031
(1668903586.954445) vcan0 17C#0000000010000012
(1668903586.954467) vcan0 18E#00005C
(1668903586.955467) vcan0 244#0000000143
(1668903586.955510) vcan0 183#0000001000001019
(1668903586.955524) vcan0 143#6B6B00D1
(1668903586.957400) vcan0 095#800007F400000008
(1668903586.961380) vcan0 166#D0320018
(1668903586.961393) vcan0 188#00000000
(1668903586.961405) vcan0 158#0000000000000019
(1668903586.961408) vcan0 161#000005500108001C
(1668903586.962516) vcan0 191#010010A141000B
(1668903586.962535) vcan0 133#00000000A7
(1668903586.962544) vcan0 136#000200000000002A
(1668903586.962551) vcan0 13A#0000000000000028
(1668903586.962558) vcan0 13F#000000050000002E
(1668903586.964344) vcan0 164#0000C01AA8000004
(1668903586.964366) vcan0 17C#0000000010000021
(1668903586.964368) vcan0 18E#00006B
(1668903586.964370) vcan0 1CF#80050000001E
(1668903586.964372) vcan0 1DC#0200001B
(1668903586.964373) vcan0 183#0000000C0000102D
(1668903586.966342) vcan0 143#6B6B00E0
(1668903586.966363) vcan0 039#002A
(1668903586.966365) vcan0 305#8035
(1668903586.967386) vcan0 244#000000010E
(1668903586.967439) vcan0 095#800007F400000017
(1668903586.968531) vcan0 1A4#000000080000003E
(1668903586.968548) vcan0 1AA#7FFF00000000673F
(1668903586.968550) vcan0 1B0#000F0000000175
(1668903586.970321) vcan0 1D0#000000000000000A
(1668903586.970348) vcan0 166#D0320027
(1668903586.971813) vcan0 158#0000000000000028
(1668903586.971841) vcan0 161#000005500108002B
(1668903586.971845) vcan0 191#010010A141001A
(1668903586.971848) vcan0 133#00000000B6
(1668903586.973736) vcan0 136#0002000000000039
(1668903586.973756) vcan0 13A#0000000000000037
(1668903586.973759) vcan0 13F#000000050000003D
(1668903586.973761) vcan0 164#0000C01AA8000013
(1668903586.973763) vcan0 17C#0000000010000030
(1668903586.973765) vcan0 18E#00007A
(1668903586.973766) vcan0 294#040B0002CF5A001D
(1668903586.973768) vcan0 21E#03E83745220610
(1668903586.975713) vcan0 183#000000090000103F
(1668903586.975733) vcan0 143#6B6B00FF
(1668903586.977701) vcan0 095#800007F400000026
(1668903586.978716) vcan0 244#000000015A
(1668903586.980180) vcan0 166#D0320036
(1668903586.981256) vcan0 039#0039
(1668903586.981265) vcan0 158#0000000000000037
(1668903586.983216) vcan0 161#000005500108003A
(1668903586.983234) vcan0 191#010010A1410029
(1668903586.983236) vcan0 133#0000000089
(1668903586.983238) vcan0 136#000200000000000C
(1668903586.983239) vcan0 13A#000000000000000A
(1668903586.983241) vcan0 13F#0000000500000000
(1668903586.983242) vcan0 164#0000C01AA9000021
(1668903586.983244) vcan0 17C#0000000010000003
(1668903586.983246) vcan0 18E#00004D
(1668903586.985181) vcan0 1CF#80050000002D
(1668903586.985208) vcan0 1DC#0200002A
(1668903586.985210) vcan0 183#0000000E0000100D
(1668903586.985213) vcan0 143#6B6B00C2
(1668903586.987214) vcan0 333#0000000000003C
(1668903586.987240) vcan0 095#800007F400000035
(1668903586.989154) vcan0 1A4#0000000800000001
(1668903586.989184) vcan0 1AA#7FFF000000006801
(1668903586.989186) vcan0 1B0#000F0000000148
(1668903586.989188) vcan0 1D0#000000000000000A
(1668903586.990217) vcan0 244#00000001A3
(1668903586.990258) vcan0 166#D0320009
(1668903586.992150) vcan0 158#000000000000000A
(1668903586.992174) vcan0 161#000005500108000D
(1668903586.992177) vcan0 191#010010A1410038
(1668903586.992178) vcan0 133#0000000098
(1668903586.992179) vcan0 136#000200000000001B
(1668903586.994141) vcan0 13A#0000000000000019
(1668903586.994171) vcan0 13F#000000050000001F
(1668903586.994186) vcan0 164#0000C01AA8000031
(1668903586.994188) vcan0 17C#0000000010000012
(1668903586.994190) vcan0 18E#00005C
(1668903586.994192) vcan0 039#000C
(1668903586.996146) vcan0 183#0000000A00001010
(1668903586.996169) vcan0 143#6B6B00D1
(1668903586.997330) vcan0 095#800007F400000008
(1668903587.000343) vcan0 166#D0320018
(1668903587.001481) vcan0 244#00000001F9
(1668903587.001491) vcan0 158#0000000000000019
(1668903587.001501) vcan0 161#000005500108001C
(1668903587.001503) vcan0 191#010010A141000B
(1668903587.003090) vcan0 133#00000000A7
(1668903587.003125) vcan0 136#000200000000002A
(1668903587.003133) vcan0 13A#0000000000000028
(1668903587.003139) vcan0 13F#000000050000002E
(1668903587.003146) vcan0 164#0000C01AA8000004
(1668903587.003152) vcan0 17C#0000000010000021
(1668903587.003158) vcan0 18E#00006B
(1668903587.004685) vcan0 1CF#80050000003C
(1668903587.004707) vcan0 1DC#02000039
(1668903587.004709) vcan0 320#000030
(1668903587.004711) vcan0 324#7465000000000E38
(1668903587.004713) vcan0 37C#FD00FD00097F0038
(1668903587.004715) vcan0 40C#0000000004000013
(1668903587.004716) vcan0 183#0000000F0000102A
(1668903587.006041) vcan0 454#23EF18
(1668903587.006059) vcan0 143#6B6B00E0
(1668903587.008029) vcan0 095#800007F400000017
(1668903587.008053) vcan0 1A4#0000000800000010
(1668903587.011051) vcan0 1AA#7FFF000000006810
(1668903587.011059) vcan0 1B0#000F0000000157
(1668903587.011062) vcan0 1D0#000000000000000A
(1668903587.011064) vcan0 166#D0320027
(1668903587.011066) vcan0 158#0000000000000028
(1668903587.013018) vcan0 161#000005500108002B
(1668903587.013036) vcan0 191#010010A141001A
(1668903587.013038) vcan0 133#00000000B6
(1668903587.013040) vcan0 136#0002000000000039
(1668903587.013040) vcan0 244#0000000178
(1668903587.013042) vcan0 13A#0000000000000037
(1668903587.013044) vcan0 13F#000000050000003D
(1668903587.013045) vcan0 164#0000C01AA9000012
(1668903587.013047) vcan0 17C#0000000010000030
(1668903587.014099) vcan0 18E#00007A
(1668903587.014109) vcan0 294#040B0002CF5A002C
(1668903587.014112) vcan0 039#001B
(1668903587.014114) vcan0 21E#03E8374522062F
(1668903587.015974) vcan0 183#0000001300001034
(1668903587.015991) vcan0 143#6B6B00FF
(1668903587.019017) vcan0 095#800007F400000026
(1668903587.020413) vcan0 166#D0320036
(1668903587.022399) vcan0 158#0000000000000037
(1668903587.022418) vcan0 161#000005500108003A
(1668903587.022420) vcan0 191#010010A1410029
(1668903587.022423) vcan0 164#0000C01AA8000022
(1668903587.022425) vcan0 133#0000000089
(1668903587.022426) vcan0 136#000200000000000C
(1668903587.022427) vcan0 13A#000000000000000A
(1668903587.024678) vcan0 244#0000000198
(1668903587.024632) vcan0 13F#0000000500000000
(1668903587.024818) vcan0 17C#0000000010000003
(1668903587.024821) vcan0 18E#00004D
(1668903587.024823) vcan0 1CF#80050000000F
(1668903587.024824) vcan0 1DC#0200000C
(1668903587.024826) vcan0 183#0000000E0000100D
(1668903587.026347) vcan0 143#6B6B00C2
(1668903587.028332) vcan0 095#800007F400000035
(1668903587.028354) vcan0 1A4#000000080000002F
(1668903587.028356) vcan0 1AA#7FFF000000006720
(1668903587.028358) vcan0 1B0#000F0000000166
(1668903587.030802) vcan0 1D0#000000000000000A
(1668903587.030809) vcan0 166#D0320009
(1668903587.032222) vcan0 158#000000000000000A
(1668903587.032241) vcan0 161#000005500108000D
(1668903587.032244) vcan0 191#010010A1410038
(1668903587.032245) vcan0 133#0000000098
(1668903587.032247) vcan0 136#000200000000001B
(1668903587.032248) vcan0 13A#0000000000000019
(1668903587.034355) vcan0 13F#000000050000001F
(1668903587.034386) vcan0 164#0000C01AA8000031
(1668903587.034389) vcan0 17C#0000000010000012
(1668903587.034390) vcan0 18E#00005C
(1668903587.034393) vcan0 309#0000000000000084
(1668903587.034396) vcan0 428#01040000521C2F
(1668903587.034398) vcan0 405#0000040000000029
(1668903587.034404) vcan0 039#002A
(1668903587.035648) vcan0 183#0000001200001017
(1668903587.035671) vcan0 143#6B6B00D1
(1668903587.036686) vcan0 244#0000000158
(1668903587.038656) vcan0 095#800007F400000008
(1668903587.040612) vcan0 166#D0320018
(1668903587.042611) vcan0 158#0000000000000019
(1668903587.042621) vcan0 161#000005500108001C
(1668903587.042623) vcan0 191#010010A141000B
(1668903587.042625) vcan0 164#0000C01AA8000004
(1668903587.042626) vcan0 133#00000000A7
(1668903587.042628) vcan0 136#000200000000002A
(1668903587.042630) vcan0 13A#0000000000000028
(1668903587.044236) vcan0 13F#000000050000002E
(1668903587.044258) vcan0 17C#0000000010000021
(1668903587.044261) vcan0 18E#00006B
(1668903587.044268) vcan0 1CF#80050000001E
(1668903587.044270) vcan0 1DC#0200001B
(1668903587.044272) vcan0 183#0000000D0000102C
(1668903587.045577) vcan0 143#6B6B00E0
(1668903587.047555) vcan0 095#800007F400000017
(1668903587.048206) vcan0 244#0000000193
(1668903587.048594) vcan0 039#0039
(1668903587.048610) vcan0 1A4#000000080000003E
(1668903587.048613) vcan0 1AA#7FFF00000000683E
(1668903587.048614) vcan0 1B0#000F0000000175
(1668903587.048616) vcan0 1D0#000000000000000A
(1668903587.049913) vcan0 166#D0320027
(1668903587.051520) vcan0 158#0000000000000028
(1668903587.051541) vcan0 161#000005500108002B
(1668903587.051543) vcan0 191#010010A141001A
(1668903587.053978) vcan0 133#00000000B6
(1668903587.053986) vcan0 136#0002000000000039
(1668903587.053988) vcan0 13A#0000000000000037
(1668903587.053990) vcan0 13F#000000050000003D
(1668903587.053991) vcan0 164#0000C01AA8000013
(1668903587.053993) vcan0 17C#0000000010000030
(1668903587.053995) vcan0 18E#00007A
(1668903587.053996) vcan0 294#040B0002CF5A003B
(1668903587.053999) vcan0 21E#03E8374522063E
(1668903587.055451) vcan0 183#000000090000103F
(1668903587.055469) vcan0 143#6B6B00FF
(1668903587.058456) vcan0 095#800007F400000026
(1668903587.059442) vcan0 244#00000001C0
(1668903587.061288) vcan0 166#D0320036
(1668903587.061312) vcan0 158#0000000000000037
(1668903587.061316) vcan0 161#000005500108003A
(1668903587.062928) vcan0 191#010010A1410029
(1668903587.062948) vcan0 164#0000C01AA8000022
(1668903587.062952) vcan0 133#0000000089
(1668903587.062954) vcan0 136#000200000000000C
(1668903587.062956) vcan0 13A#000000000000000A
(1668903587.062958) vcan0 13F#0000000500000000
(1668903587.062959) vcan0 17C#0000000010000003
(1668903587.064152) vcan0 18E#00004D
(1668903587.064172) vcan0 039#000C
(1668903587.064187) vcan0 1CF#80050000002D
(1668903587.064189) vcan0 1DC#0200002A
(1668903587.066146) vcan0 183#0000000E0000100D
(1668903587.066165) vcan0 143#6B6B00C2
(1668903587.068138) vcan0 095#800007F400000035
(1668903587.068163) vcan0 1A4#0000000800000001
(1668903587.068166) vcan0 1AA#7FFF000000006801
(1668903587.069239) vcan0 1B0#000F0000000148
(1668903587.069261) vcan0 1D0#000000000000000A
(1668903587.071103) vcan0 166#D0320009
(1668903587.071134) vcan0 305#8008
(1668903587.071137) vcan0 158#000000000000000A
(1668903587.071166) vcan0 244#000000017F
(1668903587.073083) vcan0 161#000005500108000D
(1668903587.073107) vcan0 191#010010A1410038
(1668903587.073109) vcan0 133#0000000098
(1668903587.073111) vcan0 136#000200000000001B
(1668903587.073112) vcan0 13A#0000000000000019
(1668903587.073123) vcan0 13F#000000050000001F
(1668903587.073125) vcan0 164#0000C01AA8000031
(1668903587.073127) vcan0 17C#0000000010000012
(1668903587.073128) vcan0 18E#00005C
(1668903587.076049) vcan0 183#0000000A00001010
(1668903587.076073) vcan0 143#6B6B00D1
(1668903587.078059) vcan0 095#800007F400000008
(1668903587.078077) vcan0 039#001B
(1668903587.081026) vcan0 166#D0320018
(1668903587.081046) vcan0 158#0000000000000019
(1668903587.082724) vcan0 161#000005500108001C
(1668903587.082747) vcan0 191#010010A141000B
(1668903587.082750) vcan0 133#00000000A7
(1668903587.082752) vcan0 136#000200000000002A
(1668903587.082754) vcan0 13A#0000000000000028
(1668903587.082756) vcan0 13F#000000050000002E
(1668903587.082758) vcan0 164#0000C01AA8000004
(1668903587.082764) vcan0 244#0000000168
(1668903587.083985) vcan0 17C#0000000010000021
(1668903587.084006) vcan0 18E#00006B
(1668903587.084008) vcan0 1CF#80050000003C
(1668903587.084011) vcan0 1DC#02000039
(1668903587.085605) vcan0 183#0000000F0000102A
(1668903587.085621) vcan0 143#6B6B00E0
(1668903587.087056) vcan0 333#0000000000000F
(1668903587.088943) vcan0 095#800007F400000017
(1668903587.088962) vcan0 1A4#0000000800000010
(1668903587.088965) vcan0 1AA#7FFF000000006810
(1668903587.088967) vcan0 1B0#000F0000000157
(1668903587.088969) vcan0 1D0#000000000000000A
(1668903587.090949) vcan0 166#D0320027
(1668903587.092908) vcan0 158#0000000000000028
(1668903587.092935) vcan0 161#000005500108002B
(1668903587.092938) vcan0 191#010010A141001A
(1668903587.092939) vcan0 133#00000000B6
(1668903587.092941) vcan0 136#0002000000000039
(1668903587.092943) vcan0 13A#0000000000000037
(1668903587.092945) vcan0 13F#000000050000003D
(1668903587.092947) vcan0 164#0000C01AA8000013
(1668903587.092949) vcan0 17C#0000000010000030
(1668903587.093917) vcan0 244#0000000193
(1668903587.094046) vcan0 18E#00007A
(1668903587.094070) vcan0 294#040B0002CF5A000E
(1668903587.094073) vcan0 21E#03E83745220601
(1668903587.095881) vcan0 183#0000000B0000103D
(1668903587.095906) vcan0 143#6B6B00FF
(1668903587.097869) vcan0 095#800007F400000026
(1668903587.097896) vcan0 039#002A
(1668903587.101358) vcan0 166#D0320036
(1668903587.101390) vcan0 158#0000000000000037
(1668903587.101392) vcan0 161#000005500108003A
(1668903587.102846) vcan0 191#010010A1410029
(1668903587.102869) vcan0 133#0000000089
(1668903587.102871) vcan0 136#000200000000000C
(1668903587.102873) vcan0 13A#000000000000000A
(1668903587.102874) vcan0 13F#0000000500000000
(1668903587.102876) vcan0 164#0000C01AA8000022
(1668903587.104809) vcan0 17C#0000000010000003
(1668903587.104837) vcan0 18E#00004D
(1668903587.104838) vcan0 1CF#80050000000F
(1668903587.104840) vcan0 1DC#0200000C
(1668903587.104841) vcan0 320#000003
(1668903587.104843) vcan0 324#7465000000000E0B
(1668903587.104844) vcan0 37C#FD00FD00097F000B
(1668903587.104846) vcan0 183#0000000800001003
(1668903587.105827) vcan0 244#000000013B
(1668903587.105952) vcan0 143#6B6B00C2
(1668903587.108933) vcan0 095#800007F400000035
(1668903587.108961) vcan0 1A4#000000080000002F
(1668903587.108963) vcan0 1AA#7FFF000000006720
(1668903587.108965) vcan0 1B0#000F0000000166
(1668903587.108966) vcan0 1D0#000000000000000A
(1668903587.110771) vcan0 166#D0320009
(1668903587.110778) vcan0 039#0039
(1668903587.112742) vcan0 158#000000000000000A
(1668903587.112776) vcan0 161#000005500108000D
(1668903587.112779) vcan0 191#010010A1410038
(1668903587.112780) vcan0 133#0000000098
(1668903587.112795) vcan0 136#000200000000001B
(1668903587.112800) vcan0 13A#0000000000000019
(1668903587.112802) vcan0 13F#000000050000001F
(1668903587.112804) vcan0 164#0000C01AA8000031
(1668903587.114760) vcan0 17C#0000000010000012
(1668903587.114780) vcan0 18E#00005C
(1668903587.116723) vcan0 183#0000000D0000101D
(1668903587.116744) vcan0 143#6B6B00D1
(1668903587.117512) vcan0 244#00000001E6
(1668903587.117847) vcan0 095#800007F400000008
(1668903587.120728) vcan0 166#D0320018
(1668903587.122082) vcan0 158#0000000000000019
(1668903587.122099) vcan0 161#000005500108001C
(1668903587.122101) vcan0 191#010010A141000B
(1668903587.122103) vcan0 164#0000C01AA9000003
(1668903587.122105) vcan0 133#00000000A7
(1668903587.123650) vcan0 136#000200000000002A
(1668903587.123674) vcan0 13A#0000000000000028
(1668903587.123676) vcan0 13F#000000050000002E
(1668903587.123678) vcan0 17C#0000000010000021
(1668903587.123680) vcan0 18E#00006B
(1668903587.123682) vcan0 1CF#80050000001E
(1668903587.123684) vcan0 1DC#0200001B
(1668903587.123686) vcan0 039#000C
(1668903587.125660) vcan0 183#0000000900001020
(1668903587.125683) vcan0 143#6B6B00E0
(1668903587.127636) vcan0 095#800007F400000017
(1668903587.128631) vcan0 244#000000016F
(1668903587.128716) vcan0 1A4#000000080000003E
(1668903587.128734) vcan0 1AA#7FFF00000000683E
(1668903587.128736) vcan0 1B0#000F0000000175
(1668903587.128738) vcan0 1D0#000000000000000A
(1668903587.130612) vcan0 166#D0320027
(1668903587.132569) vcan0 158#0000000000000028
(1668903587.132588) vcan0 161#000005500108002B
(1668903587.132591) vcan0 191#010010A141001A
(1668903587.132592) vcan0 133#00000000B6
(1668903587.132595) vcan0 136#0002000000000039
(1668903587.132597) vcan0 13A#0000000000000037
(1668903587.132599) vcan0 13F#000000050000003D
(1668903587.133893) vcan0 164#0000C01AA8000013
(1668903587.133913) vcan0 17C#0000000010000030
(1668903587.133915) vcan0 18E#00007A
(1668903587.133917) vcan0 294#040B0002CF5A001D
(1668903587.133919) vcan0 21E#03E83745220610
(1668903587.133921) vcan0 309#0000000000000093
(1668903587.135371) vcan0 183#0000000E0000103A
(1668903587.135392) vcan0 143#6B6B00FF
(1668903587.138408) vcan0 095#800007F400000026
(1668903587.139364) vcan0 244#00000001F1
(1668903587.141331) vcan0 039#001B
(1668903587.141349) vcan0 166#D0320036
(1668903587.141351) vcan0 158#0000000000000037
(1668903587.141353) vcan0 161#000005500108003A
(1668903587.142853) vcan0 191#010010A1410029
(1668903587.142874) vcan0 133#0000000089
(1668903587.142877) vcan0 136#000200000000000C
(1668903587.142879) vcan0 13A#000000000000000A
(1668903587.142881) vcan0 13F#0000000500000000
(1668903587.142883) vcan0 164#0000C01AA8000022
(1668903587.144830) vcan0 17C#0000000010000003
(1668903587.144863) vcan0 18E#00004D
(1668903587.144866) vcan0 1CF#80050000002D
(1668903587.144874) vcan0 1DC#0200002A
(1668903587.144876) vcan0 183#0000000A00001001
(1668903587.146816) vcan0 143#6B6B00C2
(1668903587.148785) vcan0 095#800007F400000035
(1668903587.148812) vcan0 1A4#0000000800000001
(1668903587.148815) vcan0 1AA#7FFF000000006801
(1668903587.148817) vcan0 1B0#000F0000000148
(1668903587.148833) vcan0 1D0#000000000000000A
(1668903587.150460) vcan0 166#D0320009
(1668903587.150559) vcan0 244#0000000181
(1668903587.151511) vcan0 158#000000000000000A
(1668903587.151528) vcan0 161#000005500108000D
(1668903587.151530) vcan0 191#010010A1410038
(1668903587.152780) vcan0 133#0000000098
(1668903587.152798) vcan0 136#000200000000001B
(1668903587.152800) vcan0 13A#0000000000000019
(1668903587.152801) vcan0 13F#000000050000001F
(1668903587.152803) vcan0 164#0000C01AA8000031
(1668903587.154770) vcan0 17C#0000000010000012
(1668903587.154798) vcan0 18E#00005C
(1668903587.154803) vcan0 039#002A
(1668903587.154805) vcan0 183#0000000700001013
(1668903587.156721) vcan0 143#6B6B00D1
(1668903587.158753) vcan0 095#800007F400000008
(1668903587.160689) vcan0 166#D0320018
(1668903587.161698) vcan0 244#00000001F6
(1668903587.161810) vcan0 158#0000000000000019
(1668903587.161828) vcan0 161#000005500108001C
(1668903587.161831) vcan0 191#010010A141000B
(1668903587.161833) vcan0 164#0000C01AA8000004
(1668903587.163663) vcan0 133#00000000A7
(1668903587.163681) vcan0 136#000200000000002A
(1668903587.163682) vcan0 13A#0000000000000028
(1668903587.163684) vcan0 13F#000000050000002E
(1668903587.163686) vcan0 17C#0000000010000021
(1668903587.163687) vcan0 18E#00006B
(1668903587.163689) vcan0 1CF#80050000003C
(1668903587.163690) vcan0 1DC#02000039
(1668903587.165646) vcan0 183#0000000D0000102C
(1668903587.165665) vcan0 143#6B6B00E0
(1668903587.167599) vcan0 095#800007F400000017
(1668903587.167634) vcan0 039#0039
(1668903587.169115) vcan0 1A4#0000000800000010
(1668903587.169135) vcan0 1AA#7FFF000000006810
(1668903587.169138) vcan0 1B0#000F0000000157
(1668903587.169139) vcan0 1D0#000000000000000A
(1668903587.170620) vcan0 166#D0320027
(1668903587.172844) vcan0 158#0000000000000028
(1668903587.172858) vcan0 161#000005500108002B
(1668903587.172860) vcan0 191#010010A141001A
(1668903587.172862) vcan0 133#00000000B6
(1668903587.172865) vcan0 136#0002000000000039
(1668903587.172867) vcan0 13A#0000000000000037
(1668903587.172869) vcan0 13F#000000050000003D
(1668903587.172870) vcan0 164#0000C01AA8000013
(1668903587.172888) vcan0 244#000000017F
(1668903587.174601) vcan0 17C#0000000010000030
(1668903587.174617) vcan0 18E#00007A
(1668903587.174619) vcan0 294#040B0002CF5A002C
(1668903587.174621) vcan0 21E#03E8374522062F
(1668903587.174622) vcan0 305#8017
(1668903587.176569) vcan0 183#000000090000103F
(1668903587.176588) vcan0 143#6B6B00FF
(1668903587.178570) vcan0 095#800007F400000026
(1668903587.180539) vcan0 166#D0320036
(1668903587.182576) vcan0 158#0000000000000037
(1668903587.182595) vcan0 161#000005500108003A
(1668903587.182597) vcan0 191#010010A1410029
(1668903587.182598) vcan0 039#000C
(1668903587.182600) vcan0 133#0000000089
(1668903587.182602) vcan0 136#000200000000000C
(1668903587.182603) vcan0 13A#000000000000000A
(1668903587.182605) vcan0 13F#0000000500000000
(1668903587.184237) vcan0 164#0000C01AA8000022
(1668903587.184252) vcan0 17C#0000000010000003
(1668903587.184254) vcan0 18E#00004D
(1668903587.184255) vcan0 1CF#80050000000F
(1668903587.184257) vcan0 1DC#0200000C
(1668903587.184304) vcan0 244#00000001E2
(1668903587.185549) vcan0 183#0000000600001005
(1668903587.185567) vcan0 143#6B6B00C2
(1668903587.186726) vcan0 333#0000000000001E
(1668903587.188523) vcan0 095#800007F400000035
(1668903587.188541) vcan0 1A4#000000080000002F
(1668903587.188543) vcan0 1AA#7FFF000000006720
(1668903587.188545) vcan0 1B0#000F0000000166
(1668903587.188546) vcan0 1D0#000000000000000A
(1668903587.190510) vcan0 166#D0320009
(1668903587.192483) vcan0 158#000000000000000A
(1668903587.192515) vcan0 161#000005500108000D
(1668903587.192517) vcan0 191#010010A1410038
(1668903587.192519) vcan0 133#0000000098
(1668903587.192521) vcan0 136#000200000000001B
(1668903587.192523) vcan0 13A#0000000000000019
(1668903587.192524) vcan0 13F#000000050000001F
(1668903587.194479) vcan0 164#0000C01AA8000031
(1668903587.194501) vcan0 17C#0000000010000012
(1668903587.194503) vcan0 18E#00005C
(1668903587.195477) vcan0 244#00000001E7
(1668903587.195642) vcan0 183#0000000C0000101E
(1668903587.195661) vcan0 143#6B6B00D1
(1668903587.199436) vcan0 095#800007F400000008
(1668903587.200648) vcan0 166#D0320018
(1668903587.202402) vcan0 158#0000000000000019
(1668903587.202424) vcan0 161#000005500108001C
(1668903587.202426) vcan0 191#010090A1410003
(1668903587.202428) vcan0 039#001B
(1668903587.202430) vcan0 133#00000000A7
(1668903587.202432) vcan0 136#000200000000002A
(1668903587.202434) vcan0 13A#0000000000000028
(1668903587.204386) vcan0 13F#000000050000002E
(1668903587.204404) vcan0 164#0000C01AA8000004
(1668903587.204406) vcan0 17C#0000000010000021
(1668903587.204408) vcan0 18E#00006B
(1668903587.204410) vcan0 1CF#80050000001E
(1668903587.204412) vcan0 1DC#0200001B
(1668903587.204413) vcan0 320#000012
(1668903587.204414) vcan0 324#7465000000000E1A
(1668903587.204416) vcan0 37C#FD00FD00097F001A
(1668903587.206382) vcan0 183#0000000900001020
(1668903587.206416) vcan0 143#6B6B00E0
(1668903587.207380) vcan0 244#0000000132
(1668903587.209332) vcan0 095#800007F400000017
(1668903587.209358) vcan0 1A4#000000080000003E
(1668903587.209360) vcan0 1AA#7FFF00000000683E
(1668903587.209362) vcan0 1B0#000F0000000175
(1668903587.209374) vcan0 1D0#000000000000000A
(1668903587.211326) vcan0 166#D0320027
(1668903587.211345) vcan0 158#0000000000000028
(1668903587.211347) vcan0 161#000005500108002B
(1668903587.213304) vcan0 191#010090A1410012
(1668903587.213327) vcan0 133#00000000B6
(1668903587.213330) vcan0 136#0002000000000039
(1668903587.213333) vcan0 13A#0000000000000037
(1668903587.213335) vcan0 13F#000000050000003D
(1668903587.213336) vcan0 164#0000C01AA8000013
(1668903587.213338) vcan0 17C#0000000010000030
(1668903587.213340) vcan0 18E#00007A
(1668903587.213342) vcan0 294#040B0002CF5A003B
(1668903587.215286) vcan0 21E#03E8374522063E
(1668903587.215292) vcan0 039#002A
(1668903587.215294) vcan0 183#0000000E0000103A
(1668903587.215296) vcan0 143#6B6B00FF
(1668903587.219053) vcan0 095#800007F400000026
(1668903587.219284) vcan0 244#000000016F
(1668903587.220269) vcan0 166#D0320036
(1668903587.222240) vcan0 158#0000000000000037
(1668903587.222497) vcan0 161#000005500108003A
(1668903587.222499) vcan0 191#010090A1410021
(1668903587.222500) vcan0 133#0000000089
(1668903587.222501) vcan0 136#000200000000000C
(1668903587.222502) vcan0 13A#000000000000000A
(1668903587.222503) vcan0 13F#0000000500000000
(1668903587.224215) vcan0 164#0000C01AA8000022
(1668903587.224233) vcan0 17C#0000000010000003
(1668903587.224242) vcan0 18E#00004D
(1668903587.224263) vcan0 1CF#80050000002D
(1668903587.224270) vcan0 1DC#0200002A
(1668903587.226202) vcan0 183#0000000A00001001
(1668903587.226224) vcan0 143#6B6B00C2
(1668903587.228177) vcan0 095#800007F400000035
(1668903587.228198) vcan0 1A4#0000000800000001
(1668903587.228200) vcan0 1AA#7FFF000000006801
(1668903587.230192) vcan0 1B0#000F0000000148
(1668903587.230215) vcan0 1D0#000000000000000A
(1668903587.230217) vcan0 039#0039
(1668903587.230219) vcan0 166#D0320009
(1668903587.231175) vcan0 244#0000000108
(1668903587.231298) vcan0 158#000000000000000A
(1668903587.231317) vcan0 161#000005500108000D
(1668903587.233131) vcan0 191#010090A1410030
(1668903587.233148) vcan0 133#0000000098
(1668903587.233150) vcan0 136#000200000000001B
(1668903587.233152) vcan0 13A#0000000000000019
(1668903587.233153) vcan0 13F#000000050000001F
(1668903587.233154) vcan0 164#0000C01AA8000031
(1668903587.233156) vcan0 17C#0000000010000012
(1668903587.233157) vcan0 18E#00005C
(1668903587.234488) vcan0 309#00000000000000A2
(1668903587.235587) vcan0 183#0000000F0000101B
(1668903587.235603) vcan0 143#6B6B00D1
(1668903587.239105) vcan0 095#800007F400000008
(1668903587.241049) vcan0 166#D0320018
(1668903587.241072) vcan0 158#0000000000000019
(1668903587.243037) vcan0 161#000005500108001C
(1668903587.243046) vcan0 244#00000001CF
(1668903587.243073) vcan0 191#010090A1410003
(1668903587.243085) vcan0 164#0000C01AA8000004
(1668903587.243087) vcan0 133#00000000A7
(1668903587.243089) vcan0 136#000200000000002A
(1668903587.243090) vcan0 13A#0000000000000028
(1668903587.243091) vcan0 13F#000000050000002E
(1668903587.243093) vcan0 17C#0000000010000021
(1668903587.243096) vcan0 18E#00006B
(1668903587.245009) vcan0 039#000C
(1668903587.245017) vcan0 1CF#80050000003C
(1668903587.245020) vcan0 1DC#02000039
(1668903587.245021) vcan0 183#0000000B0000102E
(1668903587.247002) vcan0 143#6B6B00E0
(1668903587.248122) vcan0 095#800007F400000017
(1668903587.248142) vcan0 1A4#0000000800000010
(1668903587.248144) vcan0 1AA#7FFF000000006810
(1668903587.249767) vcan0 1B0#000F0000000157
(1668903587.249774) vcan0 1D0#000000000000000A
(1668903587.250863) vcan0 166#D0320027
(1668903587.251946) vcan0 158#0000000000000028
(1668903587.251994) vcan0 161#000005500108002B
(1668903587.252007) vcan0 191#010090A1410012
(1668903587.252016) vcan0 133#00000000B6
(1668903587.252025) vcan0 136#0002000000000039
(1668903587.253191) vcan0 13A#0000000000000037
(1668903587.253200) vcan0 13F#000000050000003D
(1668903587.253202) vcan0 164#0000C01AA8000013
(1668903587.253204) vcan0 17C#0000000010000030
(1668903587.253206) vcan0 18E#00007A
(1668903587.253994) vcan0 244#0000000012
(1668903587.254267) vcan0 294#040B0002CF5A000E
(1668903587.254281) vcan0 21E#03E83745220601
(1668903587.255923) vcan0 183#0000000800001030
(1668903587.255945) vcan0 143#6B6B00FF
(1668903587.257915) vcan0 039#001B
(1668903587.257934) vcan0 095#800007F400000026
(1668903587.260864) vcan0 166#D0320036
(1668903587.262858) vcan0 158#0000000000000037
(1668903587.262865) vcan0 161#000005500108003A
(1668903587.262868) vcan0 191#010090A1410021
(1668903587.262870) vcan0 133#0000000089
(1668903587.262872) vcan0 136#000200000000000C
(1668903587.262873) vcan0 13A#000000000000000A
(1668903587.262875) vcan0 13F#0000000500000000
(1668903587.262877) vcan0 164#0000C01AA8000022
(1668903587.264834) vcan0 17C#0000000010000003
(1668903587.264859) vcan0 18E#00004D
(1668903587.264862) vcan0 1CF#80050000000F
(1668903587.264864) vcan0 1DC#0200000C
(1668903587.264866) vcan0 183#0000000600001005
(1668903587.264876) vcan0 244#0000000024
(1668903587.266833) vcan0 143#6B6B00C2
(1668903587.268189) vcan0 095#800007F400000035
(1668903587.268216) vcan0 1A4#000000080000002F
(1668903587.268218) vcan0 1AA#7FFF000000006720
(1668903587.270816) vcan0 1B0#000F0000000166
(1668903587.270827) vcan0 1D0#000000000000000A
(1668903587.270829) vcan0 166#D0320009
(1668903587.272124) vcan0 158#000000000000000A
(1668903587.272144) vcan0 161#000005500108000D
(1668903587.272146) vcan0 191#010090A1410030
(1668903587.272147) vcan0 133#0000000098
(1668903587.272149) vcan0 136#000200000000001B
(1668903587.272151) vcan0 039#002A
(1668903587.274120) vcan0 13A#0000000000000019
(1668903587.274140) vcan0 13F#000000050000001F
(1668903587.274142) vcan0 164#0000C01AA8000031
(1668903587.274144) vcan0 17C#0000000010000012
(1668903587.274145) vcan0 18E#00005C
(1668903587.276093) vcan0 183#0000000400001016
(1668903587.276108) vcan0 244#0000000036
(1668903587.276111) vcan0 143#6B6B00D1
(1668903587.278057) vcan0 095#800007F400000008
(1668903587.279564) vcan0 305#8026
(1668903587.281023) vcan0 166#D0320018
(1668903587.281042) vcan0 158#0000000000000019
(1668903587.283028) vcan0 161#000005500108001C
(1668903587.283035) vcan0 191#010090A1410003
(1668903587.283038) vcan0 133#00000000A7
(1668903587.283039) vcan0 136#000200000000002A
(1668903587.283041) vcan0 13A#0000000000000028
(1668903587.283043) vcan0 13F#000000050000002E
(1668903587.283045) vcan0 164#0000C01AA8000004
(1668903587.283047) vcan0 17C#0000000010000021
(1668903587.284185) vcan0 18E#00006B
(1668903587.284197) vcan0 1CF#80050000001E
(1668903587.284199) vcan0 1DC#0200001B
(1668903587.286039) vcan0 183#0000000300001026
(1668903587.286064) vcan0 143#6B6B00E0
(1668903587.286066) vcan0 039#0039
(1668903587.286068) vcan0 333#0000000000002D
(1668903587.288014) vcan0 095#800007F400000017
(1668903587.288033) vcan0 1A4#000000080000003E
(1668903587.288161) vcan0 244#0000000048
(1668903587.289878) vcan0 1AA#7FFF00000000683E
(1668903587.289898) vcan0 1B0#000F0000000175
(1668903587.289900) vcan0 1D0#000000000000000A
(1668903587.289902) vcan0 166#D0320027
(1668903587.292965) vcan0 158#0000000000000028
(1668903587.292993) vcan0 161#000005500108002B
(1668903587.292995) vcan0 191#010090A1410012
(1668903587.292998) vcan0 133#00000000B6
(1668903587.293000) vcan0 136#0002000000000039
(1668903587.293002) vcan0 13A#0000000000000037
(1668903587.293004) vcan0 13F#000000050000003D
(1668903587.293007) vcan0 164#0000C01AA8000013
(1668903587.293008) vcan0 17C#0000000010000030
(1668903587.294965) vcan0 18E#00007A
(1668903587.294996) vcan0 294#040B0002CF5A001D
(1668903587.295000) vcan0 21E#03E83745220610
(1668903587.295003) vcan0 183#0000000A0000103E
(1668903587.296476) vcan0 143#6B6B00FF
(1668903587.298482) vcan0 095#800007F400000026
(1668903587.300063) vcan0 166#D0320036
(1668903587.300115) vcan0 244#000000005A
(1668903587.301467) vcan0 158#0000000000000037
(1668903587.301492) vcan0 161#000005500108003A
(1668903587.301501) vcan0 191#010090A1410021
(1668903587.302749) vcan0 133#0000000089
(1668903587.302767) vcan0 136#000200000000000C
(1668903587.302770) vcan0 13A#000000000000000A
(1668903587.302771) vcan0 13F#0000000500000000
(1668903587.302773) vcan0 164#0000C01AA8000022
(1668903587.304409) vcan0 17C#0000000010000003
(1668903587.304427) vcan0 18E#00004D
(1668903587.304429) vcan0 1CF#80050000002D
(1668903587.304431) vcan0 1DC#0200002A
(1668903587.304432) vcan0 320#000021
(1668903587.304434) vcan0 324#7465000000000E29
(1668903587.304435) vcan0 37C#FD00FD00097F0029
(1668903587.304437) vcan0 40C#014A484D46413325
(1668903587.306401) vcan0 183#0000000700001004
(1668903587.306421) vcan0 454#23EF27
(1668903587.306424) vcan0 143#6B6B00C2
(1668903587.307584) vcan0 095#800007F400000035
(1668903587.309370) vcan0 039#000C
(1668903587.309389) vcan0 1A4#0000000800000001
(1668903587.309391) vcan0 1AA#7FFF000000006801
(1668903587.309393) vcan0 1B0#000F0000000148
(1668903587.309394) vcan0 1D0#000000000000000A
(1668903587.311367) vcan0 166#D0320009
(1668903587.311390) vcan0 158#000000000000000A
(1668903587.311393) vcan0 161#000005500108000D
(1668903587.311415) vcan0 244#000000006C
(1668903587.313331) vcan0 191#010090A1410030
(1668903587.313350) vcan0 133#0000000098
(1668903587.313352) vcan0 136#000200000000001B
(1668903587.313354) vcan0 13A#0000000000000019
(1668903587.313355) vcan0 13F#000000050000001F
(1668903587.313356) vcan0 164#0000C01AA8000031
(1668903587.313358) vcan0 17C#0000000010000012
(1668903587.313359) vcan0 18E#00005C
(1668903587.315328) vcan0 183#0000000D0000101D
(1668903587.315348) vcan0 143#6B6B00D1
(1668903587.318440) vcan0 095#800007F400000008
(1668903587.320204) vcan0 166#D0320018
(1668903587.322178) vcan0 158#0000000000000019
(1668903587.322203) vcan0 161#000005500108001C
(1668903587.322206) vcan0 191#010090A1410003
(1668903587.322208) vcan0 133#00000000A7
(1668903587.322210) vcan0 136#000200000000002A
(1668903587.322212) vcan0 13A#0000000000000028
(1668903587.323212) vcan0 244#000000007E
(1668903587.323325) vcan0 13F#000000050000002E
(1668903587.323344) vcan0 164#0000C01AA8000004
(1668903587.323346) vcan0 17C#0000000010000021
(1668903587.323348) vcan0 18E#00006B
(1668903587.323350) vcan0 1CF#80050000003C
(1668903587.325160) vcan0 1DC#02000039
(1668903587.325200) vcan0 183#0000001100001027
(1668903587.325214) vcan0 143#6B6B00E0
(1668903587.327138) vcan0 039#001B
(1668903587.329116) vcan0 095#800007F400000017
(1668903587.329137) vcan0 1A4#0000000800000010
(1668903587.329139) vcan0 1AA#7FFF000000006810
(1668903587.329141) vcan0 1B0#000F0000000157
(1668903587.329143) vcan0 1D0#000000000000000A
(1668903587.331122) vcan0 166#D0320027
(1668903587.331153) vcan0 158#0000000000000028
(1668903587.333102) vcan0 161#000005500108002B
(1668903587.333428) vcan0 191#010090A1410012
(1668903587.333445) vcan0 133#00000000B6
(1668903587.333447) vcan0 136#0002000000000039
(1668903587.333449) vcan0 13A#0000000000000037
(1668903587.333451) vcan0 13F#000000050000003D
(1668903587.333453) vcan0 164#0000C01AA8000013
(1668903587.333456) vcan0 17C#0000000010000030
(1668903587.333458) vcan0 18E#00007A
(1668903587.333462) vcan0 294#040B0002CF5A002C
(1668903587.335066) vcan0 21E#03E8374522062F
(1668903587.335096) vcan0 309#00000000000000B1
(1668903587.335098) vcan0 428#01040000521C3E
(1668903587.335100) vcan0 405#0000040000000038
(1668903587.335100) vcan0 244#0000000090
(1668903587.335115) vcan0 183#0000000C0000103C
(1668903587.335117) vcan0 143#6B6B00FF
(1668903587.339050) vcan0 095#800007F400000026
(1668903587.341021) vcan0 166#D0320036
(1668903587.341051) vcan0 039#002A
(1668903587.341067) vcan0 158#0000000000000037
(1668903587.343010) vcan0 161#000005500108003A
(1668903587.343041) vcan0 191#010090A1410021
(1668903587.343055) vcan0 133#0000000089
(1668903587.343060) vcan0 136#000200000000000C
(1668903587.343062) vcan0 13A#000000000000000A
(1668903587.343064) vcan0 13F#0000000500000000
(1668903587.343065) vcan0 164#0000C01AA8000022
(1668903587.343080) vcan0 17C#0000000010000003
(1668903587.343082) vcan0 18E#00004D
(1668903587.345937) vcan0 1CF#80050000000F
(1668903587.345971) vcan0 1DC#0200000C
(1668903587.345996) vcan0 183#000000100000100A
(1668903587.346011) vcan0 143#6B6B00C2
(1668903587.346934) vcan0 244#00000000A2
(1668903587.348887) vcan0 095#800007F400000035
(1668903587.348903) vcan0 1A4#000000080000002F
(1668903587.348905) vcan0 1AA#7FFF000000006720
(1668903587.348907) vcan0 1B0#000F0000000166
(1668903587.348909) vcan0 1D0#000000000000000A
(1668903587.350859) vcan0 166#D0320009
(1668903587.352847) vcan0 158#000000000000000A
(1668903587.352856) vcan0 161#000005500108000D
(1668903587.352859) vcan0 191#010090A1410030
(1668903587.352861) vcan0 133#0000000098
(1668903587.352867) vcan0 136#000200000000001B
(1668903587.352870) vcan0 13A#0000000000000019
(1668903587.352872) vcan0 13F#000000050000001F
(1668903587.352874) vcan0 164#0000C01AA9000030
(1668903587.354845) vcan0 17C#0000000010000012
(1668903587.354872) vcan0 18E#00005C
(1668903587.354874) vcan0 039#0039
(1668903587.354876) vcan0 183#0000000C0000101E
(1668903587.356818) vcan0 143#6B6B00D1
(1668903587.358079) vcan0 244#00000000B5
(1668903587.358122) vcan0 095#800007F400000008
(1668903587.359836) vcan0 166#D0320018
(1668903587.361771) vcan0 158#0000000000000019
(1668903587.361790) vcan0 161#000005500108001C
(1668903587.361793) vcan0 191#010090A1410003
(1668903587.361794) vcan0 133#00000000A7
(1668903587.363767) vcan0 136#000200000000002A
(1668903587.363778) vcan0 13A#0000000000000028
(1668903587.363780) vcan0 13F#000000050000002E
(1668903587.363782) vcan0 164#0000C01AA8000004
(1668903587.363784) vcan0 17C#0000000010000021
(1668903587.363786) vcan0 18E#00006B
(1668903587.363788) vcan0 1CF#80050000001E
(1668903587.363790) vcan0 1DC#0200001B
(1668903587.365735) vcan0 183#0000001000001028
(1668903587.365755) vcan0 143#6B6B00E0
(1668903587.368590) vcan0 095#800007F400000017
(1668903587.368620) vcan0 1A4#000000080000003E
(1668903587.368622) vcan0 1AA#7FFF00000000683E
(1668903587.368625) vcan0 1B0#000F0000000175
(1668903587.368627) vcan0 1D0#000000000000000A
(1668903587.369606) vcan0 244#00000000C7
(1668903587.369676) vcan0 039#000C
(1668903587.371553) vcan0 166#D0320027
(1668903587.371571) vcan0 158#0000000000000028
(1668903587.371573) vcan0 161#000005500108002B
(1668903587.371574) vcan0 191#010090A1410012
(1668903587.373550) vcan0 133#00000000B6
(1668903587.373572) vcan0 136#0002000000000039
(1668903587.373575) vcan0 13A#0000000000000037
(1668903587.373577) vcan0 13F#000000050000003D
(1668903587.373578) vcan0 164#0000C01AA8000013
(1668903587.373580) vcan0 17C#0000000010000030
(1668903587.373582) vcan0 18E#00007A
(1668903587.373584) vcan0 294#040B0002CF5A003B
(1668903587.373586) vcan0 21E#03E8374522063E
(1668903587.375531) vcan0 183#0000001300001034
(1668903587.375539) vcan0 143#6B6B00FF
(1668903587.377507) vcan0 095#800007F800000022
(1668903587.381475) vcan0 166#D0320036
(1668903587.381489) vcan0 158#0000000000000037
(1668903587.381491) vcan0 161#000005500108003A
(1668903587.381493) vcan0 191#010090A1410021
(1668903587.381494) vcan0 244#00000000D9
(1668903587.382719) vcan0 133#0000000089
(1668903587.382736) vcan0 136#000200000000000C
(1668903587.382742) vcan0 13A#000000000000000A
(1668903587.382748) vcan0 13F#0000000500000000
(1668903587.382753) vcan0 164#0000C01AA8000022
(1668903587.383842) vcan0 17C#0000000010000003
(1668903587.383851) vcan0 18E#00004D
(1668903587.383853) vcan0 1CF#80050000002D
(1668903587.383854) vcan0 1DC#0200002A
(1668903587.383856) vcan0 305#8035
(1668903587.385443) vcan0 183#0000000E0000100D
(1668903587.385463) vcan0 143#6B6B00C2
(1668903587.387429) vcan0 333#0000000000003C
(1668903587.389408) vcan0 095#800007F800000031
(1668903587.389428) vcan0 1A4#0000000800000001
(1668903587.389430) vcan0 1AA#7FFF000000006801
(1668903587.389432) vcan0 1B0#000F0000000148
(1668903587.389434) vcan0 1D0#000000000000000A
(1668903587.391389) vcan0 039#001B
(1668903587.391409) vcan0 166#D0320009
(1668903587.391411) vcan0 158#000000000000000A
(1668903587.391413) vcan0 161#000005500108000D
(1668903587.392455) vcan0 191#010090A1410030
(1668903587.392475) vcan0 133#0000000098
(1668903587.392484) vcan0 136#000200000000001B
(1668903587.392491) vcan0 13A#0000000000000019
(1668903587.392497) vcan0 13F#000000050000001F
(1668903587.392537) vcan0 244#00000000EB
(1668903587.394361) vcan0 164#0000C01AA8000031
(1668903587.394384) vcan0 17C#0000000010000012
(1668903587.394386) vcan0 18E#00005C
(1668903587.396345) vcan0 183#0000000A00001010
(1668903587.396363) vcan0 143#6B6B00D1
(1668903587.398377) vcan0 095#800007F800000004
(1668903587.400318) vcan0 166#D0320018
(1668903587.402308) vcan0 158#0000000000000019
(1668903587.402318) vcan0 161#000005500108001C
(1668903587.402320) vcan0 191#010090A1410003
(1668903587.402322) vcan0 133#00000000A7
(1668903587.402324) vcan0 136#000200000000002A
(1668903587.402326) vcan0 13A#0000000000000028
(1668903587.404293) vcan0 13F#000000050000002E
(1668903587.404301) vcan0 164#0000C01AA8000004
(1668903587.404303) vcan0 039#002A
(1668903587.404304) vcan0 17C#0000000010000021
(1668903587.404306) vcan0 18E#00006B
(1668903587.404307) vcan0 1CF#80050000003C
(1668903587.404309) vcan0 1DC#02000039
(1668903587.404310) vcan0 320#000030
(1668903587.404313) vcan0 324#7465000000000E38
(1668903587.404314) vcan0 37C#FD00FD00097F0038
(1668903587.404326) vcan0 244#00000000FD
(1668903587.406263) vcan0 183#0000000700001022
(1668903587.406280) vcan0 143#6B6B00E0
(1668903587.407541) vcan0 095#800007F800000013
(1668903587.409233) vcan0 1A4#0000000800000010
(1668903587.409251) vcan0 1AA#7FFF000000006810
(1668903587.409253) vcan0 1B0#000F0000000157
(1668903587.409255) vcan0 1D0#000000000000000A
(1668903587.411224) vcan0 166#D0320027
(1668903587.411244) vcan0 158#0000000000000028
(1668903587.413203) vcan0 161#000005500108002B
(1668903587.413223) vcan0 191#010090A1410012
(1668903587.413225) vcan0 133#00000000B6
(1668903587.413227) vcan0 136#0002000000000039
(1668903587.413229) vcan0 13A#0000000000000037
(1668903587.413231) vcan0 13F#000000050000003D
(1668903587.413232) vcan0 164#0000C01AA8000013
(1668903587.413234) vcan0 17C#0000000010000030
(1668903587.413237) vcan0 18E#00007A
(1668903587.415214) vcan0 294#040B0002CF5A000E
(1668903587.415223) vcan0 21E#03E83745220601
(1668903587.415225) vcan0 183#0000000500001033
(1668903587.415227) vcan0 143#6B6B00FF
(1668903587.416196) vcan0 244#000000010F
(1668903587.418164) vcan0 039#0039
(1668903587.418185) vcan0 095#800007F800000022
(1668903587.420149) vcan0 166#D0320036
(1668903587.421476) vcan0 158#0000000000000037
(1668903587.421484) vcan0 161#000005500108003A
(1668903587.423456) vcan0 191#010090A1410021
(1668903587.423478) vcan0 164#0000C01AA8000022
(1668903587.423480) vcan0 133#0000000089
(1668903587.423482) vcan0 136#000200000000000C
(1668903587.423485) vcan0 13A#000000000000000A
(1668903587.423487) vcan0 13F#0000000500000000
(1668903587.423488) vcan0 17C#0000000010000003
(1668903587.423490) vcan0 18E#00004D
(1668903587.423492) vcan0 1CF#80050000000F
(1668903587.423494) vcan0 1DC#0200000C
(1668903587.425440) vcan0 183#0000000B00001000
(1668903587.425460) vcan0 143#6B6B00C2
(1668903587.427430) vcan0 095#800007F800000031
(1668903587.427440) vcan0 244#0000000121
(1668903587.429475) vcan0 1A4#000000080000002F
(1668903587.429493) vcan0 1AA#7FFF000000006720
(1668903587.429495) vcan0 1B0#000F0000000166
(1668903587.429496) vcan0 1D0#000000000000000A
(1668903587.431411) vcan0 166#D0320009
(1668903587.431429) vcan0 158#000000000000000A
(1668903587.431431) vcan0 161#000005500108000D
(1668903587.432857) vcan0 191#010090A1410030
(1668903587.432894) vcan0 039#000C
(1668903587.432909) vcan0 133#0000000098
(1668903587.432914) vcan0 136#000200000000001B
(1668903587.432917) vcan0 13A#0000000000000019
(1668903587.432919) vcan0 13F#000000050000001F
(1668903587.432921) vcan0 164#0000C01AA8000031
(1668903587.434365) vcan0 17C#0000000010000012
(1668903587.434390) vcan0 18E#00005C
(1668903587.434392) vcan0 309#0000000000000084
(1668903587.436343) vcan0 183#0000000800001012
(1668903587.436362) vcan0 143#6B6B00D1
(1668903587.439182) vcan0 095#800007F800000004
(1668903587.439211) vcan0 244#0000000133
(1668903587.441135) vcan0 166#D0320018
(1668903587.441153) vcan0 158#0000000000000019
(1668903587.443150) vcan0 161#000005500108001C
(1668903587.443171) vcan0 191#010090A1410003
(1668903587.443174) vcan0 133#00000000A7
(1668903587.443176) vcan0 136#000200000000002A
(1668903587.443178) vcan0 13A#0000000000000028
(1668903587.443180) vcan0 13F#000000050000002E
(1668903587.443182) vcan0 164#0000C01AA8000004
(1668903587.443183) vcan0 17C#0000000010000021
(1668903587.443185) vcan0 18E#00006B
(1668903587.445114) vcan0 1CF#80050000001E
(1668903587.445121) vcan0 1DC#0200001B
(1668903587.445123) vcan0 183#0000000D0000102C
(1668903587.445124) vcan0 143#6B6B00E0
(1668903587.445163) vcan0 188#00000000
(1668903587.447102) vcan0 039#001B
(1668903587.449100) vcan0 095#800007F800000013
(1668903587.449122) vcan0 1A4#000000080000003E
(1668903587.449124) vcan0 1AA#7FFF00000000683E
(1668903587.449127) vcan0 1B0#000F0000000175
(1668903587.449128) vcan0 1D0#000000000000000A
(1668903587.450326) vcan0 166#D0320027
(1668903587.450357) vcan0 244#0000000145
(1668903587.452067) vcan0 158#0000000000000028
(1668903587.452086) vcan0 161#000005500108002B
(1668903587.452089) vcan0 191#010090A1410012
(1668903587.452090) vcan0 133#00000000B6
(1668903587.452092) vcan0 136#0002000000000039
(1668903587.454061) vcan0 13A#0000000000000037
(1668903587.454084) vcan0 13F#000000050000003D
(1668903587.454086) vcan0 164#0000C01AA8000013
(1668903587.454088) vcan0 17C#0000000010000030
(1668903587.454090) vcan0 18E#00007A
(1668903587.454092) vcan0 294#040B0002CF5A001D
(1668903587.454094) vcan0 21E#03E83745220610
(1668903587.456045) vcan0 183#000000090000103F
(1668903587.456066) vcan0 143#6B6B00FF
(1668903587.458021) vcan0 095#800007F800000022
(1668903587.460036) vcan0 166#D0320036
(1668903587.461996) vcan0 039#002A
(1668903587.461997) vcan0 244#0000000157
(1668903587.462016) vcan0 158#0000000000000037
(1668903587.462019) vcan0 161#000005500108003A
(1668903587.462021) vcan0 191#010090A1410021
(1668903587.462023) vcan0 164#0000C01AA8000022
(1668903587.462025) vcan0 133#0000000089
(1668903587.464023) vcan0 136#000200000000000C
(1668903587.464040) vcan0 13A#000000000000000A
(1668903587.464043) vcan0 13F#0000000500000000
(1668903587.464045) vcan0 17C#0000000010000003
(1668903587.464046) vcan0 18E#00004D
(1668903587.464048) vcan0 1CF#80050000002D
(1668903587.464050) vcan0 1DC#0200002A
(1668903587.465983) vcan0 183#0000000600001005
(1668903587.465997) vcan0 143#6B6B00C2
(1668903587.467945) vcan0 095#800007F800000031
(1668903587.467959) vcan0 1A4#0000000800000001
(1668903587.467966) vcan0 1AA#7FFF000000006801
(1668903587.469649) vcan0 1B0#000F0000000148
(1668903587.469667) vcan0 1D0#000000000000000A
(1668903587.471632) vcan0 166#D0320009
(1668903587.471652) vcan0 158#000000000000000A
(1668903587.471655) vcan0 161#000005500108000D
(1668903587.471657) vcan0 191#010090A1410030
(1668903587.473623) vcan0 133#0000000098
(1668903587.473644) vcan0 244#000000016A
(1668903587.473646) vcan0 136#000200000000001B
(1668903587.473649) vcan0 13A#0000000000000019
(1668903587.473651) vcan0 13F#000000050000001F
(1668903587.473653) vcan0 164#0000C01AA8000031
(1668903587.473655) vcan0 17C#0000000010000012
(1668903587.473657) vcan0 18E#00005C
(1668903587.475598) vcan0 183#0000000C0000101E
(1668903587.475616) vcan0 143#6B6B00D1
(1668903587.475618) vcan0 039#0039
(1668903587.477583) vcan0 095#800007F800000004
(1668903587.480839) vcan0 166#D0320018
(1668903587.482581) vcan0 158#0000000000000019
(1668903587.482600) vcan0 161#000005500108001C
(1668903587.482609) vcan0 191#010090A1410003
(1668903587.482617) vcan0 133#00000000A7
(1668903587.482625) vcan0 136#000200000000002A
(1668903587.482632) vcan0 13A#0000000000000028
(1668903587.482638) vcan0 13F#000000050000002E
(1668903587.484548) vcan0 164#0000C01AA8000004
(1668903587.484564) vcan0 17C#0000000010000021
(1668903587.484572) vcan0 18E#00006B
(1668903587.484579) vcan0 1CF#80050000003C
(1668903587.484586) vcan0 1DC#02000039
(1668903587.484592) vcan0 183#0000000900001020
(1668903587.485539) vcan0 244#000000017C
(1668903587.485652) vcan0 143#6B6B00E0
(1668903587.487515) vcan0 333#0000000000000F
(1668903587.487536) vcan0 095#800007F800000013
(1668903587.488597) vcan0 1A4#0000000800000010
(1668903587.488611) vcan0 1AA#7FFF000000006711
(1668903587.488615) vcan0 1B0#000F0000000157
(1668903587.488617) vcan0 1D0#000000000000000A
(1668903587.488618) vcan0 305#8008
(1668903587.490566) vcan0 166#D0320027
(1668903587.491635) vcan0 158#0000000000000028
(1668903587.491664) vcan0 161#000005500108002B
(1668903587.491666) vcan0 191#010090A1410012
